Command: /fetools/work_area/frontend/Batch_11/shanmukha/AXI4_2seqrs/src/testbench/./simv +UVM_TESTNAME=test2 +UVM_VERBOSITY=UVM_HIGH -cm line+cond+fsm+tgl+branch+assert -cm_dir regression.vdb -cm_name test2 -l test2_regr.log
Chronologic VCS simulator copyright 1991-2020
Contains Synopsys proprietary information.
Compiler version Q-2020.03-SP2-8_Full64; Runtime version Q-2020.03-SP2-8_Full64;  Sep 21 15:54 2026
----------------------------------------------------------------
UVM-1.1d.Synopsys
(C) 2007-2013 Mentor Graphics Corporation
(C) 2007-2013 Cadence Design Systems, Inc.
(C) 2006-2013 Synopsys, Inc.
(C) 2011-2013 Cypress Semiconductor Corp.
----------------------------------------------------------------

  ***********       IMPORTANT RELEASE NOTES         ************

  You are using a version of the UVM library that has been compiled
  with `UVM_NO_DEPRECATED undefined.
  See http://www.eda.org/svdb/view.php?id=3313 for more details.

  You are using a version of the UVM library that has been compiled
  with `UVM_OBJECT_MUST_HAVE_CONSTRUCTOR undefined.
  See http://www.eda.org/svdb/view.php?id=3770 for more details.

      (Specify +UVM_NO_RELNOTES to turn off this notice)

UVM_INFO @ 0: reporter [RNTST] Running test test2...
UVM_INFO @ 0: reporter [UVMTOP] UVM testbench topology:
------------------------------------------------------------------
Name                       Type                        Size  Value
------------------------------------------------------------------
uvm_test_top               test2                       -     @462 
  e                        env                         -     @470 
    aa                     active_agent                -     @484 
      drv                  driver                      -     @903 
        rd_item_port       uvm_seq_item_pull_port      -     @938 
        rsp_port           uvm_analysis_port           -     @920 
        seq_item_port      uvm_seq_item_pull_port      -     @911 
        wr_item_port       uvm_seq_item_pull_port      -     @929 
      inp_mon              input_monitor               -     @947 
        inp_ap             uvm_analysis_port           -     @957 
      rs                   rd_seqr                     -     @780 
        rsp_export         uvm_analysis_export         -     @788 
        seq_item_export    uvm_seq_item_pull_imp       -     @894 
        arbitration_queue  array                       0     -    
        lock_queue         array                       0     -    
        num_last_reqs      integral                    32    'd1  
        num_last_rsps      integral                    32    'd1  
      ws                   wr_seqr                     -     @657 
        rsp_export         uvm_analysis_export         -     @665 
        seq_item_export    uvm_seq_item_pull_imp       -     @771 
        arbitration_queue  array                       0     -    
        lock_queue         array                       0     -    
        num_last_reqs      integral                    32    'd1  
        num_last_rsps      integral                    32    'd1  
    pa                     passive_agent               -     @492 
      out_mon              output_monitor              -     @980 
        out_ap             uvm_analysis_port           -     @988 
    scb                    scoreboard                  -     @500 
      inp_fifo             uvm_tlm_analysis_fifo #(T)  -     @508 
        analysis_export    uvm_analysis_imp            -     @552 
        get_ap             uvm_analysis_port           -     @543 
        get_peek_export    uvm_get_peek_imp            -     @525 
        put_ap             uvm_analysis_port           -     @534 
        put_export         uvm_put_imp                 -     @516 
      out_fifo             uvm_tlm_analysis_fifo #(T)  -     @561 
        analysis_export    uvm_analysis_imp            -     @605 
        get_ap             uvm_analysis_port           -     @596 
        get_peek_export    uvm_get_peek_imp            -     @578 
        put_ap             uvm_analysis_port           -     @587 
        put_export         uvm_put_imp                 -     @569 
    sub                    subscriber                  -     @618 
      analysis_imp         uvm_analysis_imp            -     @626 
      inp_ap               uvm_analysis_imp            -     @635 
      out_ap               uvm_analysis_imp_out        -     @644 
------------------------------------------------------------------

UVM_INFO input_monitor.sv(35) @ 5: uvm_test_top.e.aa.inp_mon [INP_MON] AWADDR=         0 ,AWPROT=000 ,AWVALID=0 ,WDATA=00000000 ,WVALID=0 ,WSTRB=0000 ,BREADY=0 ,ARADDR=         0 ,ARPROT=000 ,ARVALID=0 ,RREADY=0
UVM_INFO output_monitor.sv(34) @ 5: uvm_test_top.e.pa.out_mon [OUT_MON] DUT Outputs -> AWREADY:0 | WREADY:0 | BRESP:0 | BVALID:0 | ARREADY:0 | RDATA:0 | RRESP:0 | RVALID:0  
UVM_INFO scoreboard.sv(40) @ 5: uvm_test_top.e.scb [SCB] INP_TX-> reset=0 AWADDR=         0 ,AWPROT=000 ,AWVALID=0 ,WDATA=00000000 ,WVALID=0 ,WSTRB=0000 ,BREADY=0 ,ARADDR=         0 ,ARPROT=000 ,ARVALID=0 ,RREADY=0
UVM_INFO scoreboard.sv(42) @ 5: uvm_test_top.e.scb [OUT_MON] OUT_TX -> AWREADY:0 | WREADY:0 | BRESP:0 | BVALID:0 | ARREADY:0 | RDATA:0 | RRESP:0 | RVALID:0  
UVM_INFO scoreboard.sv(99) @ 5: uvm_test_top.e.scb [SCB] EXP -> waddr_done=0, wdata_done=0, addr=         0, w_data=00000000,  mem[addr]=         0 | BRESP:0 | BVALID:0 |  RDATA:0 | RRESP:0 | RVALID:0  
UVM_INFO scoreboard.sv(124) @ 5: uvm_test_top.e.scb [SCB] ------------------------------------------------------------------
UVM_INFO input_monitor.sv(35) @ 15: uvm_test_top.e.aa.inp_mon [INP_MON] AWADDR=         0 ,AWPROT=000 ,AWVALID=0 ,WDATA=00000000 ,WVALID=0 ,WSTRB=0000 ,BREADY=0 ,ARADDR=         0 ,ARPROT=000 ,ARVALID=0 ,RREADY=0
UVM_INFO output_monitor.sv(34) @ 15: uvm_test_top.e.pa.out_mon [OUT_MON] DUT Outputs -> AWREADY:0 | WREADY:0 | BRESP:0 | BVALID:0 | ARREADY:0 | RDATA:0 | RRESP:0 | RVALID:0  
UVM_INFO scoreboard.sv(40) @ 15: uvm_test_top.e.scb [SCB] INP_TX-> reset=0 AWADDR=         0 ,AWPROT=000 ,AWVALID=0 ,WDATA=00000000 ,WVALID=0 ,WSTRB=0000 ,BREADY=0 ,ARADDR=         0 ,ARPROT=000 ,ARVALID=0 ,RREADY=0
UVM_INFO scoreboard.sv(42) @ 15: uvm_test_top.e.scb [OUT_MON] OUT_TX -> AWREADY:0 | WREADY:0 | BRESP:0 | BVALID:0 | ARREADY:0 | RDATA:0 | RRESP:0 | RVALID:0  
UVM_INFO scoreboard.sv(99) @ 15: uvm_test_top.e.scb [SCB] EXP -> waddr_done=0, wdata_done=0, addr=         0, w_data=00000000,  mem[addr]=         0 | BRESP:0 | BVALID:0 |  RDATA:0 | RRESP:0 | RVALID:0  
UVM_INFO scoreboard.sv(124) @ 15: uvm_test_top.e.scb [SCB] ------------------------------------------------------------------
UVM_INFO input_monitor.sv(35) @ 25: uvm_test_top.e.aa.inp_mon [INP_MON] AWADDR=        60 ,AWPROT=110 ,AWVALID=1 ,WDATA=ad306ffc ,WVALID=0 ,WSTRB=0110 ,BREADY=0 ,ARADDR=         0 ,ARPROT=000 ,ARVALID=0 ,RREADY=0
UVM_INFO output_monitor.sv(34) @ 25: uvm_test_top.e.pa.out_mon [OUT_MON] DUT Outputs -> AWREADY:1 | WREADY:1 | BRESP:0 | BVALID:0 | ARREADY:1 | RDATA:0 | RRESP:0 | RVALID:0  
UVM_INFO scoreboard.sv(40) @ 25: uvm_test_top.e.scb [SCB] INP_TX-> reset=1 AWADDR=        60 ,AWPROT=110 ,AWVALID=1 ,WDATA=ad306ffc ,WVALID=0 ,WSTRB=0110 ,BREADY=0 ,ARADDR=         0 ,ARPROT=000 ,ARVALID=0 ,RREADY=0
UVM_INFO scoreboard.sv(42) @ 25: uvm_test_top.e.scb [OUT_MON] OUT_TX -> AWREADY:1 | WREADY:1 | BRESP:0 | BVALID:0 | ARREADY:1 | RDATA:0 | RRESP:0 | RVALID:0  
UVM_INFO scoreboard.sv(99) @ 25: uvm_test_top.e.scb [SCB] EXP -> waddr_done=1, wdata_done=0, addr=        60, w_data=00000000,  mem[addr]=         0 | BRESP:0 | BVALID:0 |  RDATA:0 | RRESP:0 | RVALID:0  
UVM_INFO scoreboard.sv(124) @ 25: uvm_test_top.e.scb [SCB] ------------------------------------------------------------------
UVM_INFO input_monitor.sv(35) @ 35: uvm_test_top.e.aa.inp_mon [INP_MON] AWADDR=3392553138 ,AWPROT=001 ,AWVALID=0 ,WDATA=cede3f3b ,WVALID=1 ,WSTRB=0011 ,BREADY=0 ,ARADDR=         0 ,ARPROT=000 ,ARVALID=0 ,RREADY=0
UVM_INFO output_monitor.sv(34) @ 35: uvm_test_top.e.pa.out_mon [OUT_MON] DUT Outputs -> AWREADY:1 | WREADY:1 | BRESP:0 | BVALID:0 | ARREADY:1 | RDATA:0 | RRESP:0 | RVALID:0  
UVM_INFO scoreboard.sv(40) @ 35: uvm_test_top.e.scb [SCB] INP_TX-> reset=1 AWADDR=3392553138 ,AWPROT=001 ,AWVALID=0 ,WDATA=cede3f3b ,WVALID=1 ,WSTRB=0011 ,BREADY=0 ,ARADDR=         0 ,ARPROT=000 ,ARVALID=0 ,RREADY=0
UVM_INFO scoreboard.sv(42) @ 35: uvm_test_top.e.scb [OUT_MON] OUT_TX -> AWREADY:1 | WREADY:1 | BRESP:0 | BVALID:0 | ARREADY:1 | RDATA:0 | RRESP:0 | RVALID:0  
UVM_INFO scoreboard.sv(99) @ 35: uvm_test_top.e.scb [SCB] EXP -> waddr_done=1, wdata_done=1, addr=        60, w_data=cede3f3b,  mem[addr]=         0 | BRESP:0 | BVALID:0 |  RDATA:0 | RRESP:0 | RVALID:0  
UVM_INFO scoreboard.sv(124) @ 35: uvm_test_top.e.scb [SCB] ------------------------------------------------------------------
UVM_INFO input_monitor.sv(35) @ 45: uvm_test_top.e.aa.inp_mon [INP_MON] AWADDR=3392553138 ,AWPROT=001 ,AWVALID=0 ,WDATA=cede3f3b ,WVALID=0 ,WSTRB=0011 ,BREADY=1 ,ARADDR=         0 ,ARPROT=000 ,ARVALID=0 ,RREADY=0
UVM_INFO output_monitor.sv(34) @ 45: uvm_test_top.e.pa.out_mon [OUT_MON] DUT Outputs -> AWREADY:0 | WREADY:0 | BRESP:0 | BVALID:0 | ARREADY:1 | RDATA:0 | RRESP:0 | RVALID:0  
UVM_INFO scoreboard.sv(40) @ 45: uvm_test_top.e.scb [SCB] INP_TX-> reset=1 AWADDR=3392553138 ,AWPROT=001 ,AWVALID=0 ,WDATA=cede3f3b ,WVALID=0 ,WSTRB=0011 ,BREADY=1 ,ARADDR=         0 ,ARPROT=000 ,ARVALID=0 ,RREADY=0
UVM_INFO scoreboard.sv(42) @ 45: uvm_test_top.e.scb [OUT_MON] OUT_TX -> AWREADY:0 | WREADY:0 | BRESP:0 | BVALID:0 | ARREADY:1 | RDATA:0 | RRESP:0 | RVALID:0  
UVM_INFO scoreboard.sv(99) @ 45: uvm_test_top.e.scb [SCB] EXP -> waddr_done=1, wdata_done=1, addr=        60, w_data=cede3f3b,  mem[addr]=     16187 | BRESP:0 | BVALID:0 |  RDATA:0 | RRESP:0 | RVALID:0  
UVM_INFO scoreboard.sv(124) @ 45: uvm_test_top.e.scb [SCB] ------------------------------------------------------------------
UVM_INFO input_monitor.sv(35) @ 55: uvm_test_top.e.aa.inp_mon [INP_MON] AWADDR=3392553138 ,AWPROT=001 ,AWVALID=0 ,WDATA=cede3f3b ,WVALID=0 ,WSTRB=0011 ,BREADY=1 ,ARADDR=         0 ,ARPROT=000 ,ARVALID=0 ,RREADY=0
UVM_INFO output_monitor.sv(34) @ 55: uvm_test_top.e.pa.out_mon [OUT_MON] DUT Outputs -> AWREADY:0 | WREADY:0 | BRESP:11 | BVALID:1 | ARREADY:1 | RDATA:0 | RRESP:0 | RVALID:0  
UVM_INFO scoreboard.sv(40) @ 55: uvm_test_top.e.scb [SCB] INP_TX-> reset=1 AWADDR=3392553138 ,AWPROT=001 ,AWVALID=0 ,WDATA=cede3f3b ,WVALID=0 ,WSTRB=0011 ,BREADY=1 ,ARADDR=         0 ,ARPROT=000 ,ARVALID=0 ,RREADY=0
UVM_INFO scoreboard.sv(42) @ 55: uvm_test_top.e.scb [OUT_MON] OUT_TX -> AWREADY:0 | WREADY:0 | BRESP:11 | BVALID:1 | ARREADY:1 | RDATA:0 | RRESP:0 | RVALID:0  
UVM_INFO scoreboard.sv(99) @ 55: uvm_test_top.e.scb [SCB] EXP -> waddr_done=0, wdata_done=0, addr=        60, w_data=cede3f3b,  mem[addr]=     16187 | BRESP:0 | BVALID:1 |  RDATA:0 | RRESP:0 | RVALID:0  
UVM_INFO scoreboard.sv(110) @ 55: uvm_test_top.e.scb [SCB] FAIL COUNT=          1
UVM_INFO scoreboard.sv(124) @ 55: uvm_test_top.e.scb [SCB] ------------------------------------------------------------------
UVM_INFO input_monitor.sv(35) @ 65: uvm_test_top.e.aa.inp_mon [INP_MON] AWADDR=         8 ,AWPROT=001 ,AWVALID=1 ,WDATA=4788009d ,WVALID=0 ,WSTRB=0110 ,BREADY=1 ,ARADDR=         0 ,ARPROT=000 ,ARVALID=0 ,RREADY=0
UVM_INFO output_monitor.sv(34) @ 65: uvm_test_top.e.pa.out_mon [OUT_MON] DUT Outputs -> AWREADY:0 | WREADY:0 | BRESP:11 | BVALID:0 | ARREADY:1 | RDATA:0 | RRESP:0 | RVALID:0  
UVM_INFO scoreboard.sv(40) @ 65: uvm_test_top.e.scb [SCB] INP_TX-> reset=1 AWADDR=         8 ,AWPROT=001 ,AWVALID=1 ,WDATA=4788009d ,WVALID=0 ,WSTRB=0110 ,BREADY=1 ,ARADDR=         0 ,ARPROT=000 ,ARVALID=0 ,RREADY=0
UVM_INFO scoreboard.sv(42) @ 65: uvm_test_top.e.scb [OUT_MON] OUT_TX -> AWREADY:0 | WREADY:0 | BRESP:11 | BVALID:0 | ARREADY:1 | RDATA:0 | RRESP:0 | RVALID:0  
UVM_INFO scoreboard.sv(99) @ 65: uvm_test_top.e.scb [SCB] EXP -> waddr_done=0, wdata_done=0, addr=        60, w_data=cede3f3b,  mem[addr]=     16187 | BRESP:0 | BVALID:0 |  RDATA:0 | RRESP:0 | RVALID:0  
UVM_INFO scoreboard.sv(124) @ 65: uvm_test_top.e.scb [SCB] ------------------------------------------------------------------
UVM_INFO input_monitor.sv(35) @ 75: uvm_test_top.e.aa.inp_mon [INP_MON] AWADDR=         8 ,AWPROT=001 ,AWVALID=1 ,WDATA=4788009d ,WVALID=0 ,WSTRB=0110 ,BREADY=1 ,ARADDR=         0 ,ARPROT=000 ,ARVALID=0 ,RREADY=0
UVM_INFO output_monitor.sv(34) @ 75: uvm_test_top.e.pa.out_mon [OUT_MON] DUT Outputs -> AWREADY:1 | WREADY:1 | BRESP:11 | BVALID:0 | ARREADY:1 | RDATA:0 | RRESP:0 | RVALID:0  
UVM_INFO scoreboard.sv(40) @ 75: uvm_test_top.e.scb [SCB] INP_TX-> reset=1 AWADDR=         8 ,AWPROT=001 ,AWVALID=1 ,WDATA=4788009d ,WVALID=0 ,WSTRB=0110 ,BREADY=1 ,ARADDR=         0 ,ARPROT=000 ,ARVALID=0 ,RREADY=0
UVM_INFO scoreboard.sv(42) @ 75: uvm_test_top.e.scb [OUT_MON] OUT_TX -> AWREADY:1 | WREADY:1 | BRESP:11 | BVALID:0 | ARREADY:1 | RDATA:0 | RRESP:0 | RVALID:0  
UVM_INFO scoreboard.sv(99) @ 75: uvm_test_top.e.scb [SCB] EXP -> waddr_done=1, wdata_done=0, addr=         8, w_data=cede3f3b,  mem[addr]=         0 | BRESP:0 | BVALID:0 |  RDATA:0 | RRESP:0 | RVALID:0  
UVM_INFO scoreboard.sv(124) @ 75: uvm_test_top.e.scb [SCB] ------------------------------------------------------------------
UVM_INFO input_monitor.sv(35) @ 85: uvm_test_top.e.aa.inp_mon [INP_MON] AWADDR=1852049461 ,AWPROT=111 ,AWVALID=0 ,WDATA=5262afbd ,WVALID=1 ,WSTRB=0110 ,BREADY=0 ,ARADDR=         0 ,ARPROT=000 ,ARVALID=0 ,RREADY=0
UVM_INFO output_monitor.sv(34) @ 85: uvm_test_top.e.pa.out_mon [OUT_MON] DUT Outputs -> AWREADY:0 | WREADY:1 | BRESP:11 | BVALID:0 | ARREADY:1 | RDATA:0 | RRESP:0 | RVALID:0  
UVM_INFO scoreboard.sv(40) @ 85: uvm_test_top.e.scb [SCB] INP_TX-> reset=1 AWADDR=1852049461 ,AWPROT=111 ,AWVALID=0 ,WDATA=5262afbd ,WVALID=1 ,WSTRB=0110 ,BREADY=0 ,ARADDR=         0 ,ARPROT=000 ,ARVALID=0 ,RREADY=0
UVM_INFO scoreboard.sv(42) @ 85: uvm_test_top.e.scb [OUT_MON] OUT_TX -> AWREADY:0 | WREADY:1 | BRESP:11 | BVALID:0 | ARREADY:1 | RDATA:0 | RRESP:0 | RVALID:0  
UVM_INFO scoreboard.sv(99) @ 85: uvm_test_top.e.scb [SCB] EXP -> waddr_done=1, wdata_done=1, addr=         8, w_data=5262afbd,  mem[addr]=         0 | BRESP:0 | BVALID:0 |  RDATA:0 | RRESP:0 | RVALID:0  
UVM_INFO scoreboard.sv(124) @ 85: uvm_test_top.e.scb [SCB] ------------------------------------------------------------------
UVM_INFO input_monitor.sv(35) @ 95: uvm_test_top.e.aa.inp_mon [INP_MON] AWADDR=1852049461 ,AWPROT=111 ,AWVALID=0 ,WDATA=5262afbd ,WVALID=0 ,WSTRB=0110 ,BREADY=1 ,ARADDR=         0 ,ARPROT=000 ,ARVALID=0 ,RREADY=0
UVM_INFO output_monitor.sv(34) @ 95: uvm_test_top.e.pa.out_mon [OUT_MON] DUT Outputs -> AWREADY:0 | WREADY:0 | BRESP:11 | BVALID:0 | ARREADY:1 | RDATA:0 | RRESP:0 | RVALID:0  
UVM_INFO scoreboard.sv(40) @ 95: uvm_test_top.e.scb [SCB] INP_TX-> reset=1 AWADDR=1852049461 ,AWPROT=111 ,AWVALID=0 ,WDATA=5262afbd ,WVALID=0 ,WSTRB=0110 ,BREADY=1 ,ARADDR=         0 ,ARPROT=000 ,ARVALID=0 ,RREADY=0
UVM_INFO scoreboard.sv(42) @ 95: uvm_test_top.e.scb [OUT_MON] OUT_TX -> AWREADY:0 | WREADY:0 | BRESP:11 | BVALID:0 | ARREADY:1 | RDATA:0 | RRESP:0 | RVALID:0  
UVM_INFO scoreboard.sv(99) @ 95: uvm_test_top.e.scb [SCB] EXP -> waddr_done=1, wdata_done=1, addr=         8, w_data=5262afbd,  mem[addr]=   6467328 | BRESP:0 | BVALID:0 |  RDATA:0 | RRESP:0 | RVALID:0  
UVM_INFO scoreboard.sv(124) @ 95: uvm_test_top.e.scb [SCB] ------------------------------------------------------------------
UVM_INFO input_monitor.sv(35) @ 105: uvm_test_top.e.aa.inp_mon [INP_MON] AWADDR=1852049461 ,AWPROT=111 ,AWVALID=0 ,WDATA=5262afbd ,WVALID=0 ,WSTRB=0110 ,BREADY=1 ,ARADDR=         0 ,ARPROT=000 ,ARVALID=0 ,RREADY=0
UVM_INFO output_monitor.sv(34) @ 105: uvm_test_top.e.pa.out_mon [OUT_MON] DUT Outputs -> AWREADY:0 | WREADY:0 | BRESP:11 | BVALID:1 | ARREADY:1 | RDATA:0 | RRESP:0 | RVALID:0  
UVM_INFO scoreboard.sv(40) @ 105: uvm_test_top.e.scb [SCB] INP_TX-> reset=1 AWADDR=1852049461 ,AWPROT=111 ,AWVALID=0 ,WDATA=5262afbd ,WVALID=0 ,WSTRB=0110 ,BREADY=1 ,ARADDR=         0 ,ARPROT=000 ,ARVALID=0 ,RREADY=0
UVM_INFO scoreboard.sv(42) @ 105: uvm_test_top.e.scb [OUT_MON] OUT_TX -> AWREADY:0 | WREADY:0 | BRESP:11 | BVALID:1 | ARREADY:1 | RDATA:0 | RRESP:0 | RVALID:0  
UVM_INFO scoreboard.sv(99) @ 105: uvm_test_top.e.scb [SCB] EXP -> waddr_done=0, wdata_done=0, addr=         8, w_data=5262afbd,  mem[addr]=   6467328 | BRESP:0 | BVALID:1 |  RDATA:0 | RRESP:0 | RVALID:0  
UVM_INFO scoreboard.sv(110) @ 105: uvm_test_top.e.scb [SCB] FAIL COUNT=          2
UVM_INFO scoreboard.sv(124) @ 105: uvm_test_top.e.scb [SCB] ------------------------------------------------------------------
UVM_INFO input_monitor.sv(35) @ 115: uvm_test_top.e.aa.inp_mon [INP_MON] AWADDR=        16 ,AWPROT=011 ,AWVALID=1 ,WDATA=e18d69a7 ,WVALID=0 ,WSTRB=1011 ,BREADY=1 ,ARADDR=         0 ,ARPROT=000 ,ARVALID=0 ,RREADY=0
UVM_INFO output_monitor.sv(34) @ 115: uvm_test_top.e.pa.out_mon [OUT_MON] DUT Outputs -> AWREADY:0 | WREADY:0 | BRESP:11 | BVALID:0 | ARREADY:1 | RDATA:0 | RRESP:0 | RVALID:0  
UVM_INFO scoreboard.sv(40) @ 115: uvm_test_top.e.scb [SCB] INP_TX-> reset=1 AWADDR=        16 ,AWPROT=011 ,AWVALID=1 ,WDATA=e18d69a7 ,WVALID=0 ,WSTRB=1011 ,BREADY=1 ,ARADDR=         0 ,ARPROT=000 ,ARVALID=0 ,RREADY=0
UVM_INFO scoreboard.sv(42) @ 115: uvm_test_top.e.scb [OUT_MON] OUT_TX -> AWREADY:0 | WREADY:0 | BRESP:11 | BVALID:0 | ARREADY:1 | RDATA:0 | RRESP:0 | RVALID:0  
UVM_INFO scoreboard.sv(99) @ 115: uvm_test_top.e.scb [SCB] EXP -> waddr_done=0, wdata_done=0, addr=         8, w_data=5262afbd,  mem[addr]=   6467328 | BRESP:0 | BVALID:0 |  RDATA:0 | RRESP:0 | RVALID:0  
UVM_INFO scoreboard.sv(124) @ 115: uvm_test_top.e.scb [SCB] ------------------------------------------------------------------
UVM_INFO input_monitor.sv(35) @ 125: uvm_test_top.e.aa.inp_mon [INP_MON] AWADDR=        16 ,AWPROT=011 ,AWVALID=1 ,WDATA=e18d69a7 ,WVALID=0 ,WSTRB=1011 ,BREADY=1 ,ARADDR=         0 ,ARPROT=000 ,ARVALID=0 ,RREADY=0
UVM_INFO output_monitor.sv(34) @ 125: uvm_test_top.e.pa.out_mon [OUT_MON] DUT Outputs -> AWREADY:1 | WREADY:1 | BRESP:11 | BVALID:0 | ARREADY:1 | RDATA:0 | RRESP:0 | RVALID:0  
UVM_INFO scoreboard.sv(40) @ 125: uvm_test_top.e.scb [SCB] INP_TX-> reset=1 AWADDR=        16 ,AWPROT=011 ,AWVALID=1 ,WDATA=e18d69a7 ,WVALID=0 ,WSTRB=1011 ,BREADY=1 ,ARADDR=         0 ,ARPROT=000 ,ARVALID=0 ,RREADY=0
UVM_INFO scoreboard.sv(42) @ 125: uvm_test_top.e.scb [OUT_MON] OUT_TX -> AWREADY:1 | WREADY:1 | BRESP:11 | BVALID:0 | ARREADY:1 | RDATA:0 | RRESP:0 | RVALID:0  
UVM_INFO scoreboard.sv(99) @ 125: uvm_test_top.e.scb [SCB] EXP -> waddr_done=1, wdata_done=0, addr=        16, w_data=5262afbd,  mem[addr]=         0 | BRESP:0 | BVALID:0 |  RDATA:0 | RRESP:0 | RVALID:0  
UVM_INFO scoreboard.sv(124) @ 125: uvm_test_top.e.scb [SCB] ------------------------------------------------------------------
UVM_INFO input_monitor.sv(35) @ 135: uvm_test_top.e.aa.inp_mon [INP_MON] AWADDR=1979839438 ,AWPROT=001 ,AWVALID=0 ,WDATA=8ada0316 ,WVALID=1 ,WSTRB=1111 ,BREADY=0 ,ARADDR=         0 ,ARPROT=000 ,ARVALID=0 ,RREADY=0
UVM_INFO output_monitor.sv(34) @ 135: uvm_test_top.e.pa.out_mon [OUT_MON] DUT Outputs -> AWREADY:0 | WREADY:1 | BRESP:11 | BVALID:0 | ARREADY:1 | RDATA:0 | RRESP:0 | RVALID:0  
UVM_INFO scoreboard.sv(40) @ 135: uvm_test_top.e.scb [SCB] INP_TX-> reset=1 AWADDR=1979839438 ,AWPROT=001 ,AWVALID=0 ,WDATA=8ada0316 ,WVALID=1 ,WSTRB=1111 ,BREADY=0 ,ARADDR=         0 ,ARPROT=000 ,ARVALID=0 ,RREADY=0
UVM_INFO scoreboard.sv(42) @ 135: uvm_test_top.e.scb [OUT_MON] OUT_TX -> AWREADY:0 | WREADY:1 | BRESP:11 | BVALID:0 | ARREADY:1 | RDATA:0 | RRESP:0 | RVALID:0  
UVM_INFO scoreboard.sv(99) @ 135: uvm_test_top.e.scb [SCB] EXP -> waddr_done=1, wdata_done=1, addr=        16, w_data=8ada0316,  mem[addr]=         0 | BRESP:0 | BVALID:0 |  RDATA:0 | RRESP:0 | RVALID:0  
UVM_INFO scoreboard.sv(124) @ 135: uvm_test_top.e.scb [SCB] ------------------------------------------------------------------
UVM_INFO input_monitor.sv(35) @ 145: uvm_test_top.e.aa.inp_mon [INP_MON] AWADDR=1979839438 ,AWPROT=001 ,AWVALID=0 ,WDATA=8ada0316 ,WVALID=0 ,WSTRB=1111 ,BREADY=1 ,ARADDR=         0 ,ARPROT=000 ,ARVALID=0 ,RREADY=0
UVM_INFO output_monitor.sv(34) @ 145: uvm_test_top.e.pa.out_mon [OUT_MON] DUT Outputs -> AWREADY:0 | WREADY:0 | BRESP:11 | BVALID:0 | ARREADY:1 | RDATA:0 | RRESP:0 | RVALID:0  
UVM_INFO scoreboard.sv(40) @ 145: uvm_test_top.e.scb [SCB] INP_TX-> reset=1 AWADDR=1979839438 ,AWPROT=001 ,AWVALID=0 ,WDATA=8ada0316 ,WVALID=0 ,WSTRB=1111 ,BREADY=1 ,ARADDR=         0 ,ARPROT=000 ,ARVALID=0 ,RREADY=0
UVM_INFO scoreboard.sv(42) @ 145: uvm_test_top.e.scb [OUT_MON] OUT_TX -> AWREADY:0 | WREADY:0 | BRESP:11 | BVALID:0 | ARREADY:1 | RDATA:0 | RRESP:0 | RVALID:0  
UVM_INFO scoreboard.sv(99) @ 145: uvm_test_top.e.scb [SCB] EXP -> waddr_done=1, wdata_done=1, addr=        16, w_data=8ada0316,  mem[addr]=2329543446 | BRESP:0 | BVALID:0 |  RDATA:0 | RRESP:0 | RVALID:0  
UVM_INFO scoreboard.sv(124) @ 145: uvm_test_top.e.scb [SCB] ------------------------------------------------------------------
UVM_INFO input_monitor.sv(35) @ 155: uvm_test_top.e.aa.inp_mon [INP_MON] AWADDR=1979839438 ,AWPROT=001 ,AWVALID=0 ,WDATA=8ada0316 ,WVALID=0 ,WSTRB=1111 ,BREADY=1 ,ARADDR=         0 ,ARPROT=000 ,ARVALID=0 ,RREADY=0
UVM_INFO output_monitor.sv(34) @ 155: uvm_test_top.e.pa.out_mon [OUT_MON] DUT Outputs -> AWREADY:0 | WREADY:0 | BRESP:11 | BVALID:1 | ARREADY:1 | RDATA:0 | RRESP:0 | RVALID:0  
UVM_INFO scoreboard.sv(40) @ 155: uvm_test_top.e.scb [SCB] INP_TX-> reset=1 AWADDR=1979839438 ,AWPROT=001 ,AWVALID=0 ,WDATA=8ada0316 ,WVALID=0 ,WSTRB=1111 ,BREADY=1 ,ARADDR=         0 ,ARPROT=000 ,ARVALID=0 ,RREADY=0
UVM_INFO scoreboard.sv(42) @ 155: uvm_test_top.e.scb [OUT_MON] OUT_TX -> AWREADY:0 | WREADY:0 | BRESP:11 | BVALID:1 | ARREADY:1 | RDATA:0 | RRESP:0 | RVALID:0  
UVM_INFO scoreboard.sv(99) @ 155: uvm_test_top.e.scb [SCB] EXP -> waddr_done=0, wdata_done=0, addr=        16, w_data=8ada0316,  mem[addr]=2329543446 | BRESP:0 | BVALID:1 |  RDATA:0 | RRESP:0 | RVALID:0  
UVM_INFO scoreboard.sv(110) @ 155: uvm_test_top.e.scb [SCB] FAIL COUNT=          3
UVM_INFO scoreboard.sv(124) @ 155: uvm_test_top.e.scb [SCB] ------------------------------------------------------------------
UVM_INFO input_monitor.sv(35) @ 165: uvm_test_top.e.aa.inp_mon [INP_MON] AWADDR=         4 ,AWPROT=010 ,AWVALID=1 ,WDATA=c4c685bf ,WVALID=0 ,WSTRB=1110 ,BREADY=1 ,ARADDR=         0 ,ARPROT=000 ,ARVALID=0 ,RREADY=0
UVM_INFO output_monitor.sv(34) @ 165: uvm_test_top.e.pa.out_mon [OUT_MON] DUT Outputs -> AWREADY:0 | WREADY:0 | BRESP:11 | BVALID:0 | ARREADY:1 | RDATA:0 | RRESP:0 | RVALID:0  
UVM_INFO scoreboard.sv(40) @ 165: uvm_test_top.e.scb [SCB] INP_TX-> reset=1 AWADDR=         4 ,AWPROT=010 ,AWVALID=1 ,WDATA=c4c685bf ,WVALID=0 ,WSTRB=1110 ,BREADY=1 ,ARADDR=         0 ,ARPROT=000 ,ARVALID=0 ,RREADY=0
UVM_INFO scoreboard.sv(42) @ 165: uvm_test_top.e.scb [OUT_MON] OUT_TX -> AWREADY:0 | WREADY:0 | BRESP:11 | BVALID:0 | ARREADY:1 | RDATA:0 | RRESP:0 | RVALID:0  
UVM_INFO scoreboard.sv(99) @ 165: uvm_test_top.e.scb [SCB] EXP -> waddr_done=0, wdata_done=0, addr=        16, w_data=8ada0316,  mem[addr]=2329543446 | BRESP:0 | BVALID:0 |  RDATA:0 | RRESP:0 | RVALID:0  
UVM_INFO scoreboard.sv(124) @ 165: uvm_test_top.e.scb [SCB] ------------------------------------------------------------------
UVM_INFO input_monitor.sv(35) @ 175: uvm_test_top.e.aa.inp_mon [INP_MON] AWADDR=         4 ,AWPROT=010 ,AWVALID=1 ,WDATA=c4c685bf ,WVALID=0 ,WSTRB=1110 ,BREADY=1 ,ARADDR=         0 ,ARPROT=000 ,ARVALID=0 ,RREADY=0
UVM_INFO output_monitor.sv(34) @ 175: uvm_test_top.e.pa.out_mon [OUT_MON] DUT Outputs -> AWREADY:1 | WREADY:1 | BRESP:11 | BVALID:0 | ARREADY:1 | RDATA:0 | RRESP:0 | RVALID:0  
UVM_INFO scoreboard.sv(40) @ 175: uvm_test_top.e.scb [SCB] INP_TX-> reset=1 AWADDR=         4 ,AWPROT=010 ,AWVALID=1 ,WDATA=c4c685bf ,WVALID=0 ,WSTRB=1110 ,BREADY=1 ,ARADDR=         0 ,ARPROT=000 ,ARVALID=0 ,RREADY=0
UVM_INFO scoreboard.sv(42) @ 175: uvm_test_top.e.scb [OUT_MON] OUT_TX -> AWREADY:1 | WREADY:1 | BRESP:11 | BVALID:0 | ARREADY:1 | RDATA:0 | RRESP:0 | RVALID:0  
UVM_INFO scoreboard.sv(99) @ 175: uvm_test_top.e.scb [SCB] EXP -> waddr_done=1, wdata_done=0, addr=         4, w_data=8ada0316,  mem[addr]=         0 | BRESP:0 | BVALID:0 |  RDATA:0 | RRESP:0 | RVALID:0  
UVM_INFO scoreboard.sv(124) @ 175: uvm_test_top.e.scb [SCB] ------------------------------------------------------------------
UVM_INFO input_monitor.sv(35) @ 185: uvm_test_top.e.aa.inp_mon [INP_MON] AWADDR=3063605226 ,AWPROT=010 ,AWVALID=0 ,WDATA=b414c8da ,WVALID=1 ,WSTRB=0010 ,BREADY=0 ,ARADDR=         0 ,ARPROT=000 ,ARVALID=0 ,RREADY=0
UVM_INFO output_monitor.sv(34) @ 185: uvm_test_top.e.pa.out_mon [OUT_MON] DUT Outputs -> AWREADY:0 | WREADY:1 | BRESP:11 | BVALID:0 | ARREADY:1 | RDATA:0 | RRESP:0 | RVALID:0  
UVM_INFO scoreboard.sv(40) @ 185: uvm_test_top.e.scb [SCB] INP_TX-> reset=1 AWADDR=3063605226 ,AWPROT=010 ,AWVALID=0 ,WDATA=b414c8da ,WVALID=1 ,WSTRB=0010 ,BREADY=0 ,ARADDR=         0 ,ARPROT=000 ,ARVALID=0 ,RREADY=0
UVM_INFO scoreboard.sv(42) @ 185: uvm_test_top.e.scb [OUT_MON] OUT_TX -> AWREADY:0 | WREADY:1 | BRESP:11 | BVALID:0 | ARREADY:1 | RDATA:0 | RRESP:0 | RVALID:0  
UVM_INFO scoreboard.sv(99) @ 185: uvm_test_top.e.scb [SCB] EXP -> waddr_done=1, wdata_done=1, addr=         4, w_data=b414c8da,  mem[addr]=         0 | BRESP:0 | BVALID:0 |  RDATA:0 | RRESP:0 | RVALID:0  
UVM_INFO scoreboard.sv(124) @ 185: uvm_test_top.e.scb [SCB] ------------------------------------------------------------------
UVM_INFO input_monitor.sv(35) @ 195: uvm_test_top.e.aa.inp_mon [INP_MON] AWADDR=3063605226 ,AWPROT=010 ,AWVALID=0 ,WDATA=b414c8da ,WVALID=0 ,WSTRB=0010 ,BREADY=1 ,ARADDR=         0 ,ARPROT=000 ,ARVALID=0 ,RREADY=0
UVM_INFO output_monitor.sv(34) @ 195: uvm_test_top.e.pa.out_mon [OUT_MON] DUT Outputs -> AWREADY:0 | WREADY:0 | BRESP:11 | BVALID:0 | ARREADY:1 | RDATA:0 | RRESP:0 | RVALID:0  
UVM_INFO scoreboard.sv(40) @ 195: uvm_test_top.e.scb [SCB] INP_TX-> reset=1 AWADDR=3063605226 ,AWPROT=010 ,AWVALID=0 ,WDATA=b414c8da ,WVALID=0 ,WSTRB=0010 ,BREADY=1 ,ARADDR=         0 ,ARPROT=000 ,ARVALID=0 ,RREADY=0
UVM_INFO scoreboard.sv(42) @ 195: uvm_test_top.e.scb [OUT_MON] OUT_TX -> AWREADY:0 | WREADY:0 | BRESP:11 | BVALID:0 | ARREADY:1 | RDATA:0 | RRESP:0 | RVALID:0  
UVM_INFO scoreboard.sv(99) @ 195: uvm_test_top.e.scb [SCB] EXP -> waddr_done=1, wdata_done=1, addr=         4, w_data=b414c8da,  mem[addr]=     51200 | BRESP:0 | BVALID:0 |  RDATA:0 | RRESP:0 | RVALID:0  
UVM_INFO scoreboard.sv(124) @ 195: uvm_test_top.e.scb [SCB] ------------------------------------------------------------------
UVM_INFO input_monitor.sv(35) @ 205: uvm_test_top.e.aa.inp_mon [INP_MON] AWADDR=3063605226 ,AWPROT=010 ,AWVALID=0 ,WDATA=b414c8da ,WVALID=0 ,WSTRB=0010 ,BREADY=1 ,ARADDR=         0 ,ARPROT=000 ,ARVALID=0 ,RREADY=0
UVM_INFO output_monitor.sv(34) @ 205: uvm_test_top.e.pa.out_mon [OUT_MON] DUT Outputs -> AWREADY:0 | WREADY:0 | BRESP:11 | BVALID:1 | ARREADY:1 | RDATA:0 | RRESP:0 | RVALID:0  
UVM_INFO scoreboard.sv(40) @ 205: uvm_test_top.e.scb [SCB] INP_TX-> reset=1 AWADDR=3063605226 ,AWPROT=010 ,AWVALID=0 ,WDATA=b414c8da ,WVALID=0 ,WSTRB=0010 ,BREADY=1 ,ARADDR=         0 ,ARPROT=000 ,ARVALID=0 ,RREADY=0
UVM_INFO scoreboard.sv(42) @ 205: uvm_test_top.e.scb [OUT_MON] OUT_TX -> AWREADY:0 | WREADY:0 | BRESP:11 | BVALID:1 | ARREADY:1 | RDATA:0 | RRESP:0 | RVALID:0  
UVM_INFO scoreboard.sv(99) @ 205: uvm_test_top.e.scb [SCB] EXP -> waddr_done=0, wdata_done=0, addr=         4, w_data=b414c8da,  mem[addr]=     51200 | BRESP:0 | BVALID:1 |  RDATA:0 | RRESP:0 | RVALID:0  
UVM_INFO scoreboard.sv(110) @ 205: uvm_test_top.e.scb [SCB] FAIL COUNT=          4
UVM_INFO scoreboard.sv(124) @ 205: uvm_test_top.e.scb [SCB] ------------------------------------------------------------------
UVM_INFO input_monitor.sv(35) @ 215: uvm_test_top.e.aa.inp_mon [INP_MON] AWADDR=         0 ,AWPROT=000 ,AWVALID=1 ,WDATA=591156e6 ,WVALID=0 ,WSTRB=0111 ,BREADY=1 ,ARADDR=         0 ,ARPROT=000 ,ARVALID=0 ,RREADY=0
UVM_INFO output_monitor.sv(34) @ 215: uvm_test_top.e.pa.out_mon [OUT_MON] DUT Outputs -> AWREADY:0 | WREADY:0 | BRESP:11 | BVALID:0 | ARREADY:1 | RDATA:0 | RRESP:0 | RVALID:0  
UVM_INFO scoreboard.sv(40) @ 215: uvm_test_top.e.scb [SCB] INP_TX-> reset=1 AWADDR=         0 ,AWPROT=000 ,AWVALID=1 ,WDATA=591156e6 ,WVALID=0 ,WSTRB=0111 ,BREADY=1 ,ARADDR=         0 ,ARPROT=000 ,ARVALID=0 ,RREADY=0
UVM_INFO scoreboard.sv(42) @ 215: uvm_test_top.e.scb [OUT_MON] OUT_TX -> AWREADY:0 | WREADY:0 | BRESP:11 | BVALID:0 | ARREADY:1 | RDATA:0 | RRESP:0 | RVALID:0  
UVM_INFO scoreboard.sv(99) @ 215: uvm_test_top.e.scb [SCB] EXP -> waddr_done=0, wdata_done=0, addr=         4, w_data=b414c8da,  mem[addr]=     51200 | BRESP:0 | BVALID:0 |  RDATA:0 | RRESP:0 | RVALID:0  
UVM_INFO scoreboard.sv(124) @ 215: uvm_test_top.e.scb [SCB] ------------------------------------------------------------------
UVM_INFO input_monitor.sv(35) @ 225: uvm_test_top.e.aa.inp_mon [INP_MON] AWADDR=         0 ,AWPROT=000 ,AWVALID=1 ,WDATA=591156e6 ,WVALID=0 ,WSTRB=0111 ,BREADY=1 ,ARADDR=         0 ,ARPROT=000 ,ARVALID=0 ,RREADY=0
UVM_INFO output_monitor.sv(34) @ 225: uvm_test_top.e.pa.out_mon [OUT_MON] DUT Outputs -> AWREADY:1 | WREADY:1 | BRESP:11 | BVALID:0 | ARREADY:1 | RDATA:0 | RRESP:0 | RVALID:0  
UVM_INFO scoreboard.sv(40) @ 225: uvm_test_top.e.scb [SCB] INP_TX-> reset=1 AWADDR=         0 ,AWPROT=000 ,AWVALID=1 ,WDATA=591156e6 ,WVALID=0 ,WSTRB=0111 ,BREADY=1 ,ARADDR=         0 ,ARPROT=000 ,ARVALID=0 ,RREADY=0
UVM_INFO scoreboard.sv(42) @ 225: uvm_test_top.e.scb [OUT_MON] OUT_TX -> AWREADY:1 | WREADY:1 | BRESP:11 | BVALID:0 | ARREADY:1 | RDATA:0 | RRESP:0 | RVALID:0  
UVM_INFO scoreboard.sv(99) @ 225: uvm_test_top.e.scb [SCB] EXP -> waddr_done=1, wdata_done=0, addr=         0, w_data=b414c8da,  mem[addr]=         0 | BRESP:0 | BVALID:0 |  RDATA:0 | RRESP:0 | RVALID:0  
UVM_INFO scoreboard.sv(124) @ 225: uvm_test_top.e.scb [SCB] ------------------------------------------------------------------
UVM_INFO input_monitor.sv(35) @ 235: uvm_test_top.e.aa.inp_mon [INP_MON] AWADDR=1621113476 ,AWPROT=110 ,AWVALID=0 ,WDATA=f7e1f209 ,WVALID=1 ,WSTRB=1100 ,BREADY=0 ,ARADDR=         0 ,ARPROT=000 ,ARVALID=0 ,RREADY=0
UVM_INFO output_monitor.sv(34) @ 235: uvm_test_top.e.pa.out_mon [OUT_MON] DUT Outputs -> AWREADY:0 | WREADY:1 | BRESP:11 | BVALID:0 | ARREADY:1 | RDATA:0 | RRESP:0 | RVALID:0  
UVM_INFO scoreboard.sv(40) @ 235: uvm_test_top.e.scb [SCB] INP_TX-> reset=1 AWADDR=1621113476 ,AWPROT=110 ,AWVALID=0 ,WDATA=f7e1f209 ,WVALID=1 ,WSTRB=1100 ,BREADY=0 ,ARADDR=         0 ,ARPROT=000 ,ARVALID=0 ,RREADY=0
UVM_INFO scoreboard.sv(42) @ 235: uvm_test_top.e.scb [OUT_MON] OUT_TX -> AWREADY:0 | WREADY:1 | BRESP:11 | BVALID:0 | ARREADY:1 | RDATA:0 | RRESP:0 | RVALID:0  
UVM_INFO scoreboard.sv(99) @ 235: uvm_test_top.e.scb [SCB] EXP -> waddr_done=1, wdata_done=1, addr=         0, w_data=f7e1f209,  mem[addr]=         0 | BRESP:0 | BVALID:0 |  RDATA:0 | RRESP:0 | RVALID:0  
UVM_INFO scoreboard.sv(124) @ 235: uvm_test_top.e.scb [SCB] ------------------------------------------------------------------
UVM_INFO input_monitor.sv(35) @ 245: uvm_test_top.e.aa.inp_mon [INP_MON] AWADDR=1621113476 ,AWPROT=110 ,AWVALID=0 ,WDATA=f7e1f209 ,WVALID=0 ,WSTRB=1100 ,BREADY=1 ,ARADDR=         0 ,ARPROT=000 ,ARVALID=0 ,RREADY=0
UVM_INFO output_monitor.sv(34) @ 245: uvm_test_top.e.pa.out_mon [OUT_MON] DUT Outputs -> AWREADY:0 | WREADY:0 | BRESP:11 | BVALID:0 | ARREADY:1 | RDATA:0 | RRESP:0 | RVALID:0  
UVM_INFO scoreboard.sv(40) @ 245: uvm_test_top.e.scb [SCB] INP_TX-> reset=1 AWADDR=1621113476 ,AWPROT=110 ,AWVALID=0 ,WDATA=f7e1f209 ,WVALID=0 ,WSTRB=1100 ,BREADY=1 ,ARADDR=         0 ,ARPROT=000 ,ARVALID=0 ,RREADY=0
UVM_INFO scoreboard.sv(42) @ 245: uvm_test_top.e.scb [OUT_MON] OUT_TX -> AWREADY:0 | WREADY:0 | BRESP:11 | BVALID:0 | ARREADY:1 | RDATA:0 | RRESP:0 | RVALID:0  
UVM_INFO scoreboard.sv(99) @ 245: uvm_test_top.e.scb [SCB] EXP -> waddr_done=1, wdata_done=1, addr=         0, w_data=f7e1f209,  mem[addr]=4158717952 | BRESP:0 | BVALID:0 |  RDATA:0 | RRESP:0 | RVALID:0  
UVM_INFO scoreboard.sv(124) @ 245: uvm_test_top.e.scb [SCB] ------------------------------------------------------------------
UVM_INFO input_monitor.sv(35) @ 255: uvm_test_top.e.aa.inp_mon [INP_MON] AWADDR=1621113476 ,AWPROT=110 ,AWVALID=0 ,WDATA=f7e1f209 ,WVALID=0 ,WSTRB=1100 ,BREADY=1 ,ARADDR=         0 ,ARPROT=000 ,ARVALID=0 ,RREADY=0
UVM_INFO output_monitor.sv(34) @ 255: uvm_test_top.e.pa.out_mon [OUT_MON] DUT Outputs -> AWREADY:0 | WREADY:0 | BRESP:11 | BVALID:1 | ARREADY:1 | RDATA:0 | RRESP:0 | RVALID:0  
UVM_INFO scoreboard.sv(40) @ 255: uvm_test_top.e.scb [SCB] INP_TX-> reset=1 AWADDR=1621113476 ,AWPROT=110 ,AWVALID=0 ,WDATA=f7e1f209 ,WVALID=0 ,WSTRB=1100 ,BREADY=1 ,ARADDR=         0 ,ARPROT=000 ,ARVALID=0 ,RREADY=0
UVM_INFO scoreboard.sv(42) @ 255: uvm_test_top.e.scb [OUT_MON] OUT_TX -> AWREADY:0 | WREADY:0 | BRESP:11 | BVALID:1 | ARREADY:1 | RDATA:0 | RRESP:0 | RVALID:0  
UVM_INFO scoreboard.sv(99) @ 255: uvm_test_top.e.scb [SCB] EXP -> waddr_done=0, wdata_done=0, addr=         0, w_data=f7e1f209,  mem[addr]=4158717952 | BRESP:0 | BVALID:1 |  RDATA:0 | RRESP:0 | RVALID:0  
UVM_INFO scoreboard.sv(110) @ 255: uvm_test_top.e.scb [SCB] FAIL COUNT=          5
UVM_INFO scoreboard.sv(124) @ 255: uvm_test_top.e.scb [SCB] ------------------------------------------------------------------
UVM_INFO input_monitor.sv(35) @ 265: uvm_test_top.e.aa.inp_mon [INP_MON] AWADDR=        36 ,AWPROT=101 ,AWVALID=1 ,WDATA=7e6a7d30 ,WVALID=0 ,WSTRB=1100 ,BREADY=1 ,ARADDR=         0 ,ARPROT=000 ,ARVALID=0 ,RREADY=0
UVM_INFO output_monitor.sv(34) @ 265: uvm_test_top.e.pa.out_mon [OUT_MON] DUT Outputs -> AWREADY:0 | WREADY:0 | BRESP:11 | BVALID:0 | ARREADY:1 | RDATA:0 | RRESP:0 | RVALID:0  
UVM_INFO scoreboard.sv(40) @ 265: uvm_test_top.e.scb [SCB] INP_TX-> reset=1 AWADDR=        36 ,AWPROT=101 ,AWVALID=1 ,WDATA=7e6a7d30 ,WVALID=0 ,WSTRB=1100 ,BREADY=1 ,ARADDR=         0 ,ARPROT=000 ,ARVALID=0 ,RREADY=0
UVM_INFO scoreboard.sv(42) @ 265: uvm_test_top.e.scb [OUT_MON] OUT_TX -> AWREADY:0 | WREADY:0 | BRESP:11 | BVALID:0 | ARREADY:1 | RDATA:0 | RRESP:0 | RVALID:0  
UVM_INFO scoreboard.sv(99) @ 265: uvm_test_top.e.scb [SCB] EXP -> waddr_done=0, wdata_done=0, addr=         0, w_data=f7e1f209,  mem[addr]=4158717952 | BRESP:0 | BVALID:0 |  RDATA:0 | RRESP:0 | RVALID:0  
UVM_INFO scoreboard.sv(124) @ 265: uvm_test_top.e.scb [SCB] ------------------------------------------------------------------
UVM_INFO input_monitor.sv(35) @ 275: uvm_test_top.e.aa.inp_mon [INP_MON] AWADDR=        36 ,AWPROT=101 ,AWVALID=1 ,WDATA=7e6a7d30 ,WVALID=0 ,WSTRB=1100 ,BREADY=1 ,ARADDR=         0 ,ARPROT=000 ,ARVALID=0 ,RREADY=0
UVM_INFO output_monitor.sv(34) @ 275: uvm_test_top.e.pa.out_mon [OUT_MON] DUT Outputs -> AWREADY:1 | WREADY:1 | BRESP:11 | BVALID:0 | ARREADY:1 | RDATA:0 | RRESP:0 | RVALID:0  
UVM_INFO scoreboard.sv(40) @ 275: uvm_test_top.e.scb [SCB] INP_TX-> reset=1 AWADDR=        36 ,AWPROT=101 ,AWVALID=1 ,WDATA=7e6a7d30 ,WVALID=0 ,WSTRB=1100 ,BREADY=1 ,ARADDR=         0 ,ARPROT=000 ,ARVALID=0 ,RREADY=0
UVM_INFO scoreboard.sv(42) @ 275: uvm_test_top.e.scb [OUT_MON] OUT_TX -> AWREADY:1 | WREADY:1 | BRESP:11 | BVALID:0 | ARREADY:1 | RDATA:0 | RRESP:0 | RVALID:0  
UVM_INFO scoreboard.sv(99) @ 275: uvm_test_top.e.scb [SCB] EXP -> waddr_done=1, wdata_done=0, addr=        36, w_data=f7e1f209,  mem[addr]=         0 | BRESP:0 | BVALID:0 |  RDATA:0 | RRESP:0 | RVALID:0  
UVM_INFO scoreboard.sv(124) @ 275: uvm_test_top.e.scb [SCB] ------------------------------------------------------------------
UVM_INFO input_monitor.sv(35) @ 285: uvm_test_top.e.aa.inp_mon [INP_MON] AWADDR=1259721392 ,AWPROT=101 ,AWVALID=0 ,WDATA=e74e6211 ,WVALID=1 ,WSTRB=0110 ,BREADY=0 ,ARADDR=         0 ,ARPROT=000 ,ARVALID=0 ,RREADY=0
UVM_INFO output_monitor.sv(34) @ 285: uvm_test_top.e.pa.out_mon [OUT_MON] DUT Outputs -> AWREADY:0 | WREADY:1 | BRESP:11 | BVALID:0 | ARREADY:1 | RDATA:0 | RRESP:0 | RVALID:0  
UVM_INFO scoreboard.sv(40) @ 285: uvm_test_top.e.scb [SCB] INP_TX-> reset=1 AWADDR=1259721392 ,AWPROT=101 ,AWVALID=0 ,WDATA=e74e6211 ,WVALID=1 ,WSTRB=0110 ,BREADY=0 ,ARADDR=         0 ,ARPROT=000 ,ARVALID=0 ,RREADY=0
UVM_INFO scoreboard.sv(42) @ 285: uvm_test_top.e.scb [OUT_MON] OUT_TX -> AWREADY:0 | WREADY:1 | BRESP:11 | BVALID:0 | ARREADY:1 | RDATA:0 | RRESP:0 | RVALID:0  
UVM_INFO scoreboard.sv(99) @ 285: uvm_test_top.e.scb [SCB] EXP -> waddr_done=1, wdata_done=1, addr=        36, w_data=e74e6211,  mem[addr]=         0 | BRESP:0 | BVALID:0 |  RDATA:0 | RRESP:0 | RVALID:0  
UVM_INFO scoreboard.sv(124) @ 285: uvm_test_top.e.scb [SCB] ------------------------------------------------------------------
UVM_INFO input_monitor.sv(35) @ 295: uvm_test_top.e.aa.inp_mon [INP_MON] AWADDR=1259721392 ,AWPROT=101 ,AWVALID=0 ,WDATA=e74e6211 ,WVALID=0 ,WSTRB=0110 ,BREADY=1 ,ARADDR=         0 ,ARPROT=000 ,ARVALID=0 ,RREADY=0
UVM_INFO output_monitor.sv(34) @ 295: uvm_test_top.e.pa.out_mon [OUT_MON] DUT Outputs -> AWREADY:0 | WREADY:0 | BRESP:11 | BVALID:0 | ARREADY:1 | RDATA:0 | RRESP:0 | RVALID:0  
UVM_INFO scoreboard.sv(40) @ 295: uvm_test_top.e.scb [SCB] INP_TX-> reset=1 AWADDR=1259721392 ,AWPROT=101 ,AWVALID=0 ,WDATA=e74e6211 ,WVALID=0 ,WSTRB=0110 ,BREADY=1 ,ARADDR=         0 ,ARPROT=000 ,ARVALID=0 ,RREADY=0
UVM_INFO scoreboard.sv(42) @ 295: uvm_test_top.e.scb [OUT_MON] OUT_TX -> AWREADY:0 | WREADY:0 | BRESP:11 | BVALID:0 | ARREADY:1 | RDATA:0 | RRESP:0 | RVALID:0  
UVM_INFO scoreboard.sv(99) @ 295: uvm_test_top.e.scb [SCB] EXP -> waddr_done=1, wdata_done=1, addr=        36, w_data=e74e6211,  mem[addr]=   5136896 | BRESP:0 | BVALID:0 |  RDATA:0 | RRESP:0 | RVALID:0  
UVM_INFO scoreboard.sv(124) @ 295: uvm_test_top.e.scb [SCB] ------------------------------------------------------------------
UVM_INFO input_monitor.sv(35) @ 305: uvm_test_top.e.aa.inp_mon [INP_MON] AWADDR=1259721392 ,AWPROT=101 ,AWVALID=0 ,WDATA=e74e6211 ,WVALID=0 ,WSTRB=0110 ,BREADY=1 ,ARADDR=         0 ,ARPROT=000 ,ARVALID=0 ,RREADY=0
UVM_INFO output_monitor.sv(34) @ 305: uvm_test_top.e.pa.out_mon [OUT_MON] DUT Outputs -> AWREADY:0 | WREADY:0 | BRESP:11 | BVALID:1 | ARREADY:1 | RDATA:0 | RRESP:0 | RVALID:0  
UVM_INFO scoreboard.sv(40) @ 305: uvm_test_top.e.scb [SCB] INP_TX-> reset=1 AWADDR=1259721392 ,AWPROT=101 ,AWVALID=0 ,WDATA=e74e6211 ,WVALID=0 ,WSTRB=0110 ,BREADY=1 ,ARADDR=         0 ,ARPROT=000 ,ARVALID=0 ,RREADY=0
UVM_INFO scoreboard.sv(42) @ 305: uvm_test_top.e.scb [OUT_MON] OUT_TX -> AWREADY:0 | WREADY:0 | BRESP:11 | BVALID:1 | ARREADY:1 | RDATA:0 | RRESP:0 | RVALID:0  
UVM_INFO scoreboard.sv(99) @ 305: uvm_test_top.e.scb [SCB] EXP -> waddr_done=0, wdata_done=0, addr=        36, w_data=e74e6211,  mem[addr]=   5136896 | BRESP:0 | BVALID:1 |  RDATA:0 | RRESP:0 | RVALID:0  
UVM_INFO scoreboard.sv(110) @ 305: uvm_test_top.e.scb [SCB] FAIL COUNT=          6
UVM_INFO scoreboard.sv(124) @ 305: uvm_test_top.e.scb [SCB] ------------------------------------------------------------------
UVM_INFO input_monitor.sv(35) @ 315: uvm_test_top.e.aa.inp_mon [INP_MON] AWADDR=        28 ,AWPROT=111 ,AWVALID=1 ,WDATA=e0aba5a7 ,WVALID=0 ,WSTRB=0001 ,BREADY=1 ,ARADDR=         0 ,ARPROT=000 ,ARVALID=0 ,RREADY=0
UVM_INFO output_monitor.sv(34) @ 315: uvm_test_top.e.pa.out_mon [OUT_MON] DUT Outputs -> AWREADY:0 | WREADY:0 | BRESP:11 | BVALID:0 | ARREADY:1 | RDATA:0 | RRESP:0 | RVALID:0  
UVM_INFO scoreboard.sv(40) @ 315: uvm_test_top.e.scb [SCB] INP_TX-> reset=1 AWADDR=        28 ,AWPROT=111 ,AWVALID=1 ,WDATA=e0aba5a7 ,WVALID=0 ,WSTRB=0001 ,BREADY=1 ,ARADDR=         0 ,ARPROT=000 ,ARVALID=0 ,RREADY=0
UVM_INFO scoreboard.sv(42) @ 315: uvm_test_top.e.scb [OUT_MON] OUT_TX -> AWREADY:0 | WREADY:0 | BRESP:11 | BVALID:0 | ARREADY:1 | RDATA:0 | RRESP:0 | RVALID:0  
UVM_INFO scoreboard.sv(99) @ 315: uvm_test_top.e.scb [SCB] EXP -> waddr_done=0, wdata_done=0, addr=        36, w_data=e74e6211,  mem[addr]=   5136896 | BRESP:0 | BVALID:0 |  RDATA:0 | RRESP:0 | RVALID:0  
UVM_INFO scoreboard.sv(124) @ 315: uvm_test_top.e.scb [SCB] ------------------------------------------------------------------
UVM_INFO input_monitor.sv(35) @ 325: uvm_test_top.e.aa.inp_mon [INP_MON] AWADDR=        28 ,AWPROT=111 ,AWVALID=1 ,WDATA=e0aba5a7 ,WVALID=0 ,WSTRB=0001 ,BREADY=1 ,ARADDR=         0 ,ARPROT=000 ,ARVALID=0 ,RREADY=0
UVM_INFO output_monitor.sv(34) @ 325: uvm_test_top.e.pa.out_mon [OUT_MON] DUT Outputs -> AWREADY:1 | WREADY:1 | BRESP:11 | BVALID:0 | ARREADY:1 | RDATA:0 | RRESP:0 | RVALID:0  
UVM_INFO scoreboard.sv(40) @ 325: uvm_test_top.e.scb [SCB] INP_TX-> reset=1 AWADDR=        28 ,AWPROT=111 ,AWVALID=1 ,WDATA=e0aba5a7 ,WVALID=0 ,WSTRB=0001 ,BREADY=1 ,ARADDR=         0 ,ARPROT=000 ,ARVALID=0 ,RREADY=0
UVM_INFO scoreboard.sv(42) @ 325: uvm_test_top.e.scb [OUT_MON] OUT_TX -> AWREADY:1 | WREADY:1 | BRESP:11 | BVALID:0 | ARREADY:1 | RDATA:0 | RRESP:0 | RVALID:0  
UVM_INFO scoreboard.sv(99) @ 325: uvm_test_top.e.scb [SCB] EXP -> waddr_done=1, wdata_done=0, addr=        28, w_data=e74e6211,  mem[addr]=         0 | BRESP:0 | BVALID:0 |  RDATA:0 | RRESP:0 | RVALID:0  
UVM_INFO scoreboard.sv(124) @ 325: uvm_test_top.e.scb [SCB] ------------------------------------------------------------------
UVM_INFO input_monitor.sv(35) @ 335: uvm_test_top.e.aa.inp_mon [INP_MON] AWADDR=1830655957 ,AWPROT=011 ,AWVALID=0 ,WDATA=c5638c3c ,WVALID=1 ,WSTRB=1100 ,BREADY=0 ,ARADDR=         0 ,ARPROT=000 ,ARVALID=0 ,RREADY=0
UVM_INFO output_monitor.sv(34) @ 335: uvm_test_top.e.pa.out_mon [OUT_MON] DUT Outputs -> AWREADY:0 | WREADY:1 | BRESP:11 | BVALID:0 | ARREADY:1 | RDATA:0 | RRESP:0 | RVALID:0  
UVM_INFO scoreboard.sv(40) @ 335: uvm_test_top.e.scb [SCB] INP_TX-> reset=1 AWADDR=1830655957 ,AWPROT=011 ,AWVALID=0 ,WDATA=c5638c3c ,WVALID=1 ,WSTRB=1100 ,BREADY=0 ,ARADDR=         0 ,ARPROT=000 ,ARVALID=0 ,RREADY=0
UVM_INFO scoreboard.sv(42) @ 335: uvm_test_top.e.scb [OUT_MON] OUT_TX -> AWREADY:0 | WREADY:1 | BRESP:11 | BVALID:0 | ARREADY:1 | RDATA:0 | RRESP:0 | RVALID:0  
UVM_INFO scoreboard.sv(99) @ 335: uvm_test_top.e.scb [SCB] EXP -> waddr_done=1, wdata_done=1, addr=        28, w_data=c5638c3c,  mem[addr]=         0 | BRESP:0 | BVALID:0 |  RDATA:0 | RRESP:0 | RVALID:0  
UVM_INFO scoreboard.sv(124) @ 335: uvm_test_top.e.scb [SCB] ------------------------------------------------------------------
UVM_INFO input_monitor.sv(35) @ 345: uvm_test_top.e.aa.inp_mon [INP_MON] AWADDR=1830655957 ,AWPROT=011 ,AWVALID=0 ,WDATA=c5638c3c ,WVALID=0 ,WSTRB=1100 ,BREADY=1 ,ARADDR=         0 ,ARPROT=000 ,ARVALID=0 ,RREADY=0
UVM_INFO output_monitor.sv(34) @ 345: uvm_test_top.e.pa.out_mon [OUT_MON] DUT Outputs -> AWREADY:0 | WREADY:0 | BRESP:11 | BVALID:0 | ARREADY:1 | RDATA:0 | RRESP:0 | RVALID:0  
UVM_INFO scoreboard.sv(40) @ 345: uvm_test_top.e.scb [SCB] INP_TX-> reset=1 AWADDR=1830655957 ,AWPROT=011 ,AWVALID=0 ,WDATA=c5638c3c ,WVALID=0 ,WSTRB=1100 ,BREADY=1 ,ARADDR=         0 ,ARPROT=000 ,ARVALID=0 ,RREADY=0
UVM_INFO scoreboard.sv(42) @ 345: uvm_test_top.e.scb [OUT_MON] OUT_TX -> AWREADY:0 | WREADY:0 | BRESP:11 | BVALID:0 | ARREADY:1 | RDATA:0 | RRESP:0 | RVALID:0  
UVM_INFO scoreboard.sv(99) @ 345: uvm_test_top.e.scb [SCB] EXP -> waddr_done=1, wdata_done=1, addr=        28, w_data=c5638c3c,  mem[addr]=3311599616 | BRESP:0 | BVALID:0 |  RDATA:0 | RRESP:0 | RVALID:0  
UVM_INFO scoreboard.sv(124) @ 345: uvm_test_top.e.scb [SCB] ------------------------------------------------------------------
UVM_INFO input_monitor.sv(35) @ 355: uvm_test_top.e.aa.inp_mon [INP_MON] AWADDR=1830655957 ,AWPROT=011 ,AWVALID=0 ,WDATA=c5638c3c ,WVALID=0 ,WSTRB=1100 ,BREADY=1 ,ARADDR=         0 ,ARPROT=000 ,ARVALID=0 ,RREADY=0
UVM_INFO output_monitor.sv(34) @ 355: uvm_test_top.e.pa.out_mon [OUT_MON] DUT Outputs -> AWREADY:0 | WREADY:0 | BRESP:11 | BVALID:1 | ARREADY:1 | RDATA:0 | RRESP:0 | RVALID:0  
UVM_INFO scoreboard.sv(40) @ 355: uvm_test_top.e.scb [SCB] INP_TX-> reset=1 AWADDR=1830655957 ,AWPROT=011 ,AWVALID=0 ,WDATA=c5638c3c ,WVALID=0 ,WSTRB=1100 ,BREADY=1 ,ARADDR=         0 ,ARPROT=000 ,ARVALID=0 ,RREADY=0
UVM_INFO scoreboard.sv(42) @ 355: uvm_test_top.e.scb [OUT_MON] OUT_TX -> AWREADY:0 | WREADY:0 | BRESP:11 | BVALID:1 | ARREADY:1 | RDATA:0 | RRESP:0 | RVALID:0  
UVM_INFO scoreboard.sv(99) @ 355: uvm_test_top.e.scb [SCB] EXP -> waddr_done=0, wdata_done=0, addr=        28, w_data=c5638c3c,  mem[addr]=3311599616 | BRESP:0 | BVALID:1 |  RDATA:0 | RRESP:0 | RVALID:0  
UVM_INFO scoreboard.sv(110) @ 355: uvm_test_top.e.scb [SCB] FAIL COUNT=          7
UVM_INFO scoreboard.sv(124) @ 355: uvm_test_top.e.scb [SCB] ------------------------------------------------------------------
UVM_INFO input_monitor.sv(35) @ 365: uvm_test_top.e.aa.inp_mon [INP_MON] AWADDR=        12 ,AWPROT=100 ,AWVALID=1 ,WDATA=2fcac167 ,WVALID=0 ,WSTRB=0000 ,BREADY=1 ,ARADDR=         0 ,ARPROT=000 ,ARVALID=0 ,RREADY=0
UVM_INFO output_monitor.sv(34) @ 365: uvm_test_top.e.pa.out_mon [OUT_MON] DUT Outputs -> AWREADY:0 | WREADY:0 | BRESP:11 | BVALID:0 | ARREADY:1 | RDATA:0 | RRESP:0 | RVALID:0  
UVM_INFO scoreboard.sv(40) @ 365: uvm_test_top.e.scb [SCB] INP_TX-> reset=1 AWADDR=        12 ,AWPROT=100 ,AWVALID=1 ,WDATA=2fcac167 ,WVALID=0 ,WSTRB=0000 ,BREADY=1 ,ARADDR=         0 ,ARPROT=000 ,ARVALID=0 ,RREADY=0
UVM_INFO scoreboard.sv(42) @ 365: uvm_test_top.e.scb [OUT_MON] OUT_TX -> AWREADY:0 | WREADY:0 | BRESP:11 | BVALID:0 | ARREADY:1 | RDATA:0 | RRESP:0 | RVALID:0  
UVM_INFO scoreboard.sv(99) @ 365: uvm_test_top.e.scb [SCB] EXP -> waddr_done=0, wdata_done=0, addr=        28, w_data=c5638c3c,  mem[addr]=3311599616 | BRESP:0 | BVALID:0 |  RDATA:0 | RRESP:0 | RVALID:0  
UVM_INFO scoreboard.sv(124) @ 365: uvm_test_top.e.scb [SCB] ------------------------------------------------------------------
UVM_INFO input_monitor.sv(35) @ 375: uvm_test_top.e.aa.inp_mon [INP_MON] AWADDR=        12 ,AWPROT=100 ,AWVALID=1 ,WDATA=2fcac167 ,WVALID=0 ,WSTRB=0000 ,BREADY=1 ,ARADDR=         0 ,ARPROT=000 ,ARVALID=0 ,RREADY=0
UVM_INFO output_monitor.sv(34) @ 375: uvm_test_top.e.pa.out_mon [OUT_MON] DUT Outputs -> AWREADY:1 | WREADY:1 | BRESP:11 | BVALID:0 | ARREADY:1 | RDATA:0 | RRESP:0 | RVALID:0  
UVM_INFO scoreboard.sv(40) @ 375: uvm_test_top.e.scb [SCB] INP_TX-> reset=1 AWADDR=        12 ,AWPROT=100 ,AWVALID=1 ,WDATA=2fcac167 ,WVALID=0 ,WSTRB=0000 ,BREADY=1 ,ARADDR=         0 ,ARPROT=000 ,ARVALID=0 ,RREADY=0
UVM_INFO scoreboard.sv(42) @ 375: uvm_test_top.e.scb [OUT_MON] OUT_TX -> AWREADY:1 | WREADY:1 | BRESP:11 | BVALID:0 | ARREADY:1 | RDATA:0 | RRESP:0 | RVALID:0  
UVM_INFO scoreboard.sv(99) @ 375: uvm_test_top.e.scb [SCB] EXP -> waddr_done=1, wdata_done=0, addr=        12, w_data=c5638c3c,  mem[addr]=         0 | BRESP:0 | BVALID:0 |  RDATA:0 | RRESP:0 | RVALID:0  
UVM_INFO scoreboard.sv(124) @ 375: uvm_test_top.e.scb [SCB] ------------------------------------------------------------------
UVM_INFO input_monitor.sv(35) @ 385: uvm_test_top.e.aa.inp_mon [INP_MON] AWADDR= 741820147 ,AWPROT=010 ,AWVALID=0 ,WDATA=d98ce2ec ,WVALID=1 ,WSTRB=1010 ,BREADY=0 ,ARADDR=         0 ,ARPROT=000 ,ARVALID=0 ,RREADY=0
UVM_INFO output_monitor.sv(34) @ 385: uvm_test_top.e.pa.out_mon [OUT_MON] DUT Outputs -> AWREADY:0 | WREADY:1 | BRESP:11 | BVALID:0 | ARREADY:1 | RDATA:0 | RRESP:0 | RVALID:0  
UVM_INFO scoreboard.sv(40) @ 385: uvm_test_top.e.scb [SCB] INP_TX-> reset=1 AWADDR= 741820147 ,AWPROT=010 ,AWVALID=0 ,WDATA=d98ce2ec ,WVALID=1 ,WSTRB=1010 ,BREADY=0 ,ARADDR=         0 ,ARPROT=000 ,ARVALID=0 ,RREADY=0
UVM_INFO scoreboard.sv(42) @ 385: uvm_test_top.e.scb [OUT_MON] OUT_TX -> AWREADY:0 | WREADY:1 | BRESP:11 | BVALID:0 | ARREADY:1 | RDATA:0 | RRESP:0 | RVALID:0  
UVM_INFO scoreboard.sv(99) @ 385: uvm_test_top.e.scb [SCB] EXP -> waddr_done=1, wdata_done=1, addr=        12, w_data=d98ce2ec,  mem[addr]=         0 | BRESP:0 | BVALID:0 |  RDATA:0 | RRESP:0 | RVALID:0  
UVM_INFO scoreboard.sv(124) @ 385: uvm_test_top.e.scb [SCB] ------------------------------------------------------------------
UVM_INFO input_monitor.sv(35) @ 395: uvm_test_top.e.aa.inp_mon [INP_MON] AWADDR= 741820147 ,AWPROT=010 ,AWVALID=0 ,WDATA=d98ce2ec ,WVALID=0 ,WSTRB=1010 ,BREADY=1 ,ARADDR=         0 ,ARPROT=000 ,ARVALID=0 ,RREADY=0
UVM_INFO output_monitor.sv(34) @ 395: uvm_test_top.e.pa.out_mon [OUT_MON] DUT Outputs -> AWREADY:0 | WREADY:0 | BRESP:11 | BVALID:0 | ARREADY:1 | RDATA:0 | RRESP:0 | RVALID:0  
UVM_INFO scoreboard.sv(40) @ 395: uvm_test_top.e.scb [SCB] INP_TX-> reset=1 AWADDR= 741820147 ,AWPROT=010 ,AWVALID=0 ,WDATA=d98ce2ec ,WVALID=0 ,WSTRB=1010 ,BREADY=1 ,ARADDR=         0 ,ARPROT=000 ,ARVALID=0 ,RREADY=0
UVM_INFO scoreboard.sv(42) @ 395: uvm_test_top.e.scb [OUT_MON] OUT_TX -> AWREADY:0 | WREADY:0 | BRESP:11 | BVALID:0 | ARREADY:1 | RDATA:0 | RRESP:0 | RVALID:0  
UVM_INFO scoreboard.sv(99) @ 395: uvm_test_top.e.scb [SCB] EXP -> waddr_done=1, wdata_done=1, addr=        12, w_data=d98ce2ec,  mem[addr]=3640713728 | BRESP:0 | BVALID:0 |  RDATA:0 | RRESP:0 | RVALID:0  
UVM_INFO scoreboard.sv(124) @ 395: uvm_test_top.e.scb [SCB] ------------------------------------------------------------------
UVM_INFO input_monitor.sv(35) @ 405: uvm_test_top.e.aa.inp_mon [INP_MON] AWADDR= 741820147 ,AWPROT=010 ,AWVALID=0 ,WDATA=d98ce2ec ,WVALID=0 ,WSTRB=1010 ,BREADY=1 ,ARADDR=         0 ,ARPROT=000 ,ARVALID=0 ,RREADY=0
UVM_INFO output_monitor.sv(34) @ 405: uvm_test_top.e.pa.out_mon [OUT_MON] DUT Outputs -> AWREADY:0 | WREADY:0 | BRESP:11 | BVALID:1 | ARREADY:1 | RDATA:0 | RRESP:0 | RVALID:0  
UVM_INFO scoreboard.sv(40) @ 405: uvm_test_top.e.scb [SCB] INP_TX-> reset=1 AWADDR= 741820147 ,AWPROT=010 ,AWVALID=0 ,WDATA=d98ce2ec ,WVALID=0 ,WSTRB=1010 ,BREADY=1 ,ARADDR=         0 ,ARPROT=000 ,ARVALID=0 ,RREADY=0
UVM_INFO scoreboard.sv(42) @ 405: uvm_test_top.e.scb [OUT_MON] OUT_TX -> AWREADY:0 | WREADY:0 | BRESP:11 | BVALID:1 | ARREADY:1 | RDATA:0 | RRESP:0 | RVALID:0  
UVM_INFO scoreboard.sv(99) @ 405: uvm_test_top.e.scb [SCB] EXP -> waddr_done=0, wdata_done=0, addr=        12, w_data=d98ce2ec,  mem[addr]=3640713728 | BRESP:0 | BVALID:1 |  RDATA:0 | RRESP:0 | RVALID:0  
UVM_INFO scoreboard.sv(110) @ 405: uvm_test_top.e.scb [SCB] FAIL COUNT=          8
UVM_INFO scoreboard.sv(124) @ 405: uvm_test_top.e.scb [SCB] ------------------------------------------------------------------
UVM_INFO input_monitor.sv(35) @ 415: uvm_test_top.e.aa.inp_mon [INP_MON] AWADDR=         0 ,AWPROT=011 ,AWVALID=1 ,WDATA=d8ab76e2 ,WVALID=0 ,WSTRB=1000 ,BREADY=1 ,ARADDR=         0 ,ARPROT=000 ,ARVALID=0 ,RREADY=0
UVM_INFO output_monitor.sv(34) @ 415: uvm_test_top.e.pa.out_mon [OUT_MON] DUT Outputs -> AWREADY:0 | WREADY:0 | BRESP:11 | BVALID:0 | ARREADY:1 | RDATA:0 | RRESP:0 | RVALID:0  
UVM_INFO scoreboard.sv(40) @ 415: uvm_test_top.e.scb [SCB] INP_TX-> reset=1 AWADDR=         0 ,AWPROT=011 ,AWVALID=1 ,WDATA=d8ab76e2 ,WVALID=0 ,WSTRB=1000 ,BREADY=1 ,ARADDR=         0 ,ARPROT=000 ,ARVALID=0 ,RREADY=0
UVM_INFO scoreboard.sv(42) @ 415: uvm_test_top.e.scb [OUT_MON] OUT_TX -> AWREADY:0 | WREADY:0 | BRESP:11 | BVALID:0 | ARREADY:1 | RDATA:0 | RRESP:0 | RVALID:0  
UVM_INFO scoreboard.sv(99) @ 415: uvm_test_top.e.scb [SCB] EXP -> waddr_done=0, wdata_done=0, addr=        12, w_data=d98ce2ec,  mem[addr]=3640713728 | BRESP:0 | BVALID:0 |  RDATA:0 | RRESP:0 | RVALID:0  
UVM_INFO scoreboard.sv(124) @ 415: uvm_test_top.e.scb [SCB] ------------------------------------------------------------------
UVM_INFO input_monitor.sv(35) @ 425: uvm_test_top.e.aa.inp_mon [INP_MON] AWADDR=         0 ,AWPROT=011 ,AWVALID=1 ,WDATA=d8ab76e2 ,WVALID=0 ,WSTRB=1000 ,BREADY=1 ,ARADDR=         0 ,ARPROT=000 ,ARVALID=0 ,RREADY=0
UVM_INFO output_monitor.sv(34) @ 425: uvm_test_top.e.pa.out_mon [OUT_MON] DUT Outputs -> AWREADY:1 | WREADY:1 | BRESP:11 | BVALID:0 | ARREADY:1 | RDATA:0 | RRESP:0 | RVALID:0  
UVM_INFO scoreboard.sv(40) @ 425: uvm_test_top.e.scb [SCB] INP_TX-> reset=1 AWADDR=         0 ,AWPROT=011 ,AWVALID=1 ,WDATA=d8ab76e2 ,WVALID=0 ,WSTRB=1000 ,BREADY=1 ,ARADDR=         0 ,ARPROT=000 ,ARVALID=0 ,RREADY=0
UVM_INFO scoreboard.sv(42) @ 425: uvm_test_top.e.scb [OUT_MON] OUT_TX -> AWREADY:1 | WREADY:1 | BRESP:11 | BVALID:0 | ARREADY:1 | RDATA:0 | RRESP:0 | RVALID:0  
UVM_INFO scoreboard.sv(99) @ 425: uvm_test_top.e.scb [SCB] EXP -> waddr_done=1, wdata_done=0, addr=         0, w_data=d98ce2ec,  mem[addr]=4158717952 | BRESP:0 | BVALID:0 |  RDATA:0 | RRESP:0 | RVALID:0  
UVM_INFO scoreboard.sv(124) @ 425: uvm_test_top.e.scb [SCB] ------------------------------------------------------------------
UVM_INFO input_monitor.sv(35) @ 435: uvm_test_top.e.aa.inp_mon [INP_MON] AWADDR=2811930173 ,AWPROT=010 ,AWVALID=0 ,WDATA=2a03f6fb ,WVALID=1 ,WSTRB=1010 ,BREADY=0 ,ARADDR=         0 ,ARPROT=000 ,ARVALID=0 ,RREADY=0
UVM_INFO output_monitor.sv(34) @ 435: uvm_test_top.e.pa.out_mon [OUT_MON] DUT Outputs -> AWREADY:0 | WREADY:1 | BRESP:11 | BVALID:0 | ARREADY:1 | RDATA:0 | RRESP:0 | RVALID:0  
UVM_INFO scoreboard.sv(40) @ 435: uvm_test_top.e.scb [SCB] INP_TX-> reset=1 AWADDR=2811930173 ,AWPROT=010 ,AWVALID=0 ,WDATA=2a03f6fb ,WVALID=1 ,WSTRB=1010 ,BREADY=0 ,ARADDR=         0 ,ARPROT=000 ,ARVALID=0 ,RREADY=0
UVM_INFO scoreboard.sv(42) @ 435: uvm_test_top.e.scb [OUT_MON] OUT_TX -> AWREADY:0 | WREADY:1 | BRESP:11 | BVALID:0 | ARREADY:1 | RDATA:0 | RRESP:0 | RVALID:0  
UVM_INFO scoreboard.sv(99) @ 435: uvm_test_top.e.scb [SCB] EXP -> waddr_done=1, wdata_done=1, addr=         0, w_data=2a03f6fb,  mem[addr]=4158717952 | BRESP:0 | BVALID:0 |  RDATA:0 | RRESP:0 | RVALID:0  
UVM_INFO scoreboard.sv(124) @ 435: uvm_test_top.e.scb [SCB] ------------------------------------------------------------------
UVM_INFO input_monitor.sv(35) @ 445: uvm_test_top.e.aa.inp_mon [INP_MON] AWADDR=2811930173 ,AWPROT=010 ,AWVALID=0 ,WDATA=2a03f6fb ,WVALID=0 ,WSTRB=1010 ,BREADY=1 ,ARADDR=         0 ,ARPROT=000 ,ARVALID=0 ,RREADY=0
UVM_INFO output_monitor.sv(34) @ 445: uvm_test_top.e.pa.out_mon [OUT_MON] DUT Outputs -> AWREADY:0 | WREADY:0 | BRESP:11 | BVALID:0 | ARREADY:1 | RDATA:0 | RRESP:0 | RVALID:0  
UVM_INFO scoreboard.sv(40) @ 445: uvm_test_top.e.scb [SCB] INP_TX-> reset=1 AWADDR=2811930173 ,AWPROT=010 ,AWVALID=0 ,WDATA=2a03f6fb ,WVALID=0 ,WSTRB=1010 ,BREADY=1 ,ARADDR=         0 ,ARPROT=000 ,ARVALID=0 ,RREADY=0
UVM_INFO scoreboard.sv(42) @ 445: uvm_test_top.e.scb [OUT_MON] OUT_TX -> AWREADY:0 | WREADY:0 | BRESP:11 | BVALID:0 | ARREADY:1 | RDATA:0 | RRESP:0 | RVALID:0  
UVM_INFO scoreboard.sv(99) @ 445: uvm_test_top.e.scb [SCB] EXP -> waddr_done=1, wdata_done=1, addr=         0, w_data=2a03f6fb,  mem[addr]= 719451648 | BRESP:0 | BVALID:0 |  RDATA:0 | RRESP:0 | RVALID:0  
UVM_INFO scoreboard.sv(124) @ 445: uvm_test_top.e.scb [SCB] ------------------------------------------------------------------
UVM_INFO input_monitor.sv(35) @ 455: uvm_test_top.e.aa.inp_mon [INP_MON] AWADDR=2811930173 ,AWPROT=010 ,AWVALID=0 ,WDATA=2a03f6fb ,WVALID=0 ,WSTRB=1010 ,BREADY=1 ,ARADDR=         0 ,ARPROT=000 ,ARVALID=0 ,RREADY=0
UVM_INFO output_monitor.sv(34) @ 455: uvm_test_top.e.pa.out_mon [OUT_MON] DUT Outputs -> AWREADY:0 | WREADY:0 | BRESP:11 | BVALID:1 | ARREADY:1 | RDATA:0 | RRESP:0 | RVALID:0  
UVM_INFO scoreboard.sv(40) @ 455: uvm_test_top.e.scb [SCB] INP_TX-> reset=1 AWADDR=2811930173 ,AWPROT=010 ,AWVALID=0 ,WDATA=2a03f6fb ,WVALID=0 ,WSTRB=1010 ,BREADY=1 ,ARADDR=         0 ,ARPROT=000 ,ARVALID=0 ,RREADY=0
UVM_INFO scoreboard.sv(42) @ 455: uvm_test_top.e.scb [OUT_MON] OUT_TX -> AWREADY:0 | WREADY:0 | BRESP:11 | BVALID:1 | ARREADY:1 | RDATA:0 | RRESP:0 | RVALID:0  
UVM_INFO scoreboard.sv(99) @ 455: uvm_test_top.e.scb [SCB] EXP -> waddr_done=0, wdata_done=0, addr=         0, w_data=2a03f6fb,  mem[addr]= 719451648 | BRESP:0 | BVALID:1 |  RDATA:0 | RRESP:0 | RVALID:0  
UVM_INFO scoreboard.sv(110) @ 455: uvm_test_top.e.scb [SCB] FAIL COUNT=          9
UVM_INFO scoreboard.sv(124) @ 455: uvm_test_top.e.scb [SCB] ------------------------------------------------------------------
UVM_INFO input_monitor.sv(35) @ 465: uvm_test_top.e.aa.inp_mon [INP_MON] AWADDR=        32 ,AWPROT=100 ,AWVALID=1 ,WDATA=5269f10e ,WVALID=0 ,WSTRB=1100 ,BREADY=1 ,ARADDR=         0 ,ARPROT=000 ,ARVALID=0 ,RREADY=0
UVM_INFO output_monitor.sv(34) @ 465: uvm_test_top.e.pa.out_mon [OUT_MON] DUT Outputs -> AWREADY:0 | WREADY:0 | BRESP:11 | BVALID:0 | ARREADY:1 | RDATA:0 | RRESP:0 | RVALID:0  
UVM_INFO scoreboard.sv(40) @ 465: uvm_test_top.e.scb [SCB] INP_TX-> reset=1 AWADDR=        32 ,AWPROT=100 ,AWVALID=1 ,WDATA=5269f10e ,WVALID=0 ,WSTRB=1100 ,BREADY=1 ,ARADDR=         0 ,ARPROT=000 ,ARVALID=0 ,RREADY=0
UVM_INFO scoreboard.sv(42) @ 465: uvm_test_top.e.scb [OUT_MON] OUT_TX -> AWREADY:0 | WREADY:0 | BRESP:11 | BVALID:0 | ARREADY:1 | RDATA:0 | RRESP:0 | RVALID:0  
UVM_INFO scoreboard.sv(99) @ 465: uvm_test_top.e.scb [SCB] EXP -> waddr_done=0, wdata_done=0, addr=         0, w_data=2a03f6fb,  mem[addr]= 719451648 | BRESP:0 | BVALID:0 |  RDATA:0 | RRESP:0 | RVALID:0  
UVM_INFO scoreboard.sv(124) @ 465: uvm_test_top.e.scb [SCB] ------------------------------------------------------------------
UVM_INFO input_monitor.sv(35) @ 475: uvm_test_top.e.aa.inp_mon [INP_MON] AWADDR=        32 ,AWPROT=100 ,AWVALID=1 ,WDATA=5269f10e ,WVALID=0 ,WSTRB=1100 ,BREADY=1 ,ARADDR=         0 ,ARPROT=000 ,ARVALID=0 ,RREADY=0
UVM_INFO output_monitor.sv(34) @ 475: uvm_test_top.e.pa.out_mon [OUT_MON] DUT Outputs -> AWREADY:1 | WREADY:1 | BRESP:11 | BVALID:0 | ARREADY:1 | RDATA:0 | RRESP:0 | RVALID:0  
UVM_INFO scoreboard.sv(40) @ 475: uvm_test_top.e.scb [SCB] INP_TX-> reset=1 AWADDR=        32 ,AWPROT=100 ,AWVALID=1 ,WDATA=5269f10e ,WVALID=0 ,WSTRB=1100 ,BREADY=1 ,ARADDR=         0 ,ARPROT=000 ,ARVALID=0 ,RREADY=0
UVM_INFO scoreboard.sv(42) @ 475: uvm_test_top.e.scb [OUT_MON] OUT_TX -> AWREADY:1 | WREADY:1 | BRESP:11 | BVALID:0 | ARREADY:1 | RDATA:0 | RRESP:0 | RVALID:0  
UVM_INFO scoreboard.sv(99) @ 475: uvm_test_top.e.scb [SCB] EXP -> waddr_done=1, wdata_done=0, addr=        32, w_data=2a03f6fb,  mem[addr]=         0 | BRESP:0 | BVALID:0 |  RDATA:0 | RRESP:0 | RVALID:0  
UVM_INFO scoreboard.sv(124) @ 475: uvm_test_top.e.scb [SCB] ------------------------------------------------------------------
UVM_INFO input_monitor.sv(35) @ 485: uvm_test_top.e.aa.inp_mon [INP_MON] AWADDR=2273604607 ,AWPROT=010 ,AWVALID=0 ,WDATA=e2c9a3fb ,WVALID=1 ,WSTRB=0111 ,BREADY=0 ,ARADDR=         0 ,ARPROT=000 ,ARVALID=0 ,RREADY=0
UVM_INFO output_monitor.sv(34) @ 485: uvm_test_top.e.pa.out_mon [OUT_MON] DUT Outputs -> AWREADY:0 | WREADY:1 | BRESP:11 | BVALID:0 | ARREADY:1 | RDATA:0 | RRESP:0 | RVALID:0  
UVM_INFO scoreboard.sv(40) @ 485: uvm_test_top.e.scb [SCB] INP_TX-> reset=1 AWADDR=2273604607 ,AWPROT=010 ,AWVALID=0 ,WDATA=e2c9a3fb ,WVALID=1 ,WSTRB=0111 ,BREADY=0 ,ARADDR=         0 ,ARPROT=000 ,ARVALID=0 ,RREADY=0
UVM_INFO scoreboard.sv(42) @ 485: uvm_test_top.e.scb [OUT_MON] OUT_TX -> AWREADY:0 | WREADY:1 | BRESP:11 | BVALID:0 | ARREADY:1 | RDATA:0 | RRESP:0 | RVALID:0  
UVM_INFO scoreboard.sv(99) @ 485: uvm_test_top.e.scb [SCB] EXP -> waddr_done=1, wdata_done=1, addr=        32, w_data=e2c9a3fb,  mem[addr]=         0 | BRESP:0 | BVALID:0 |  RDATA:0 | RRESP:0 | RVALID:0  
UVM_INFO scoreboard.sv(124) @ 485: uvm_test_top.e.scb [SCB] ------------------------------------------------------------------
UVM_INFO input_monitor.sv(35) @ 495: uvm_test_top.e.aa.inp_mon [INP_MON] AWADDR=2273604607 ,AWPROT=010 ,AWVALID=0 ,WDATA=e2c9a3fb ,WVALID=0 ,WSTRB=0111 ,BREADY=1 ,ARADDR=         0 ,ARPROT=000 ,ARVALID=0 ,RREADY=0
UVM_INFO output_monitor.sv(34) @ 495: uvm_test_top.e.pa.out_mon [OUT_MON] DUT Outputs -> AWREADY:0 | WREADY:0 | BRESP:11 | BVALID:0 | ARREADY:1 | RDATA:0 | RRESP:0 | RVALID:0  
UVM_INFO scoreboard.sv(40) @ 495: uvm_test_top.e.scb [SCB] INP_TX-> reset=1 AWADDR=2273604607 ,AWPROT=010 ,AWVALID=0 ,WDATA=e2c9a3fb ,WVALID=0 ,WSTRB=0111 ,BREADY=1 ,ARADDR=         0 ,ARPROT=000 ,ARVALID=0 ,RREADY=0
UVM_INFO scoreboard.sv(42) @ 495: uvm_test_top.e.scb [OUT_MON] OUT_TX -> AWREADY:0 | WREADY:0 | BRESP:11 | BVALID:0 | ARREADY:1 | RDATA:0 | RRESP:0 | RVALID:0  
UVM_INFO scoreboard.sv(99) @ 495: uvm_test_top.e.scb [SCB] EXP -> waddr_done=1, wdata_done=1, addr=        32, w_data=e2c9a3fb,  mem[addr]=  13214715 | BRESP:0 | BVALID:0 |  RDATA:0 | RRESP:0 | RVALID:0  
UVM_INFO scoreboard.sv(124) @ 495: uvm_test_top.e.scb [SCB] ------------------------------------------------------------------
UVM_INFO input_monitor.sv(35) @ 505: uvm_test_top.e.aa.inp_mon [INP_MON] AWADDR=2273604607 ,AWPROT=010 ,AWVALID=0 ,WDATA=e2c9a3fb ,WVALID=0 ,WSTRB=0111 ,BREADY=1 ,ARADDR=         0 ,ARPROT=000 ,ARVALID=0 ,RREADY=0
UVM_INFO output_monitor.sv(34) @ 505: uvm_test_top.e.pa.out_mon [OUT_MON] DUT Outputs -> AWREADY:0 | WREADY:0 | BRESP:11 | BVALID:1 | ARREADY:1 | RDATA:0 | RRESP:0 | RVALID:0  
UVM_INFO scoreboard.sv(40) @ 505: uvm_test_top.e.scb [SCB] INP_TX-> reset=1 AWADDR=2273604607 ,AWPROT=010 ,AWVALID=0 ,WDATA=e2c9a3fb ,WVALID=0 ,WSTRB=0111 ,BREADY=1 ,ARADDR=         0 ,ARPROT=000 ,ARVALID=0 ,RREADY=0
UVM_INFO scoreboard.sv(42) @ 505: uvm_test_top.e.scb [OUT_MON] OUT_TX -> AWREADY:0 | WREADY:0 | BRESP:11 | BVALID:1 | ARREADY:1 | RDATA:0 | RRESP:0 | RVALID:0  
UVM_INFO scoreboard.sv(99) @ 505: uvm_test_top.e.scb [SCB] EXP -> waddr_done=0, wdata_done=0, addr=        32, w_data=e2c9a3fb,  mem[addr]=  13214715 | BRESP:0 | BVALID:1 |  RDATA:0 | RRESP:0 | RVALID:0  
UVM_INFO scoreboard.sv(110) @ 505: uvm_test_top.e.scb [SCB] FAIL COUNT=         10
UVM_INFO scoreboard.sv(124) @ 505: uvm_test_top.e.scb [SCB] ------------------------------------------------------------------
UVM_INFO input_monitor.sv(35) @ 515: uvm_test_top.e.aa.inp_mon [INP_MON] AWADDR=        16 ,AWPROT=100 ,AWVALID=1 ,WDATA=a6a6345d ,WVALID=0 ,WSTRB=0111 ,BREADY=1 ,ARADDR=         0 ,ARPROT=000 ,ARVALID=0 ,RREADY=0
UVM_INFO output_monitor.sv(34) @ 515: uvm_test_top.e.pa.out_mon [OUT_MON] DUT Outputs -> AWREADY:0 | WREADY:0 | BRESP:11 | BVALID:0 | ARREADY:1 | RDATA:0 | RRESP:0 | RVALID:0  
UVM_INFO scoreboard.sv(40) @ 515: uvm_test_top.e.scb [SCB] INP_TX-> reset=1 AWADDR=        16 ,AWPROT=100 ,AWVALID=1 ,WDATA=a6a6345d ,WVALID=0 ,WSTRB=0111 ,BREADY=1 ,ARADDR=         0 ,ARPROT=000 ,ARVALID=0 ,RREADY=0
UVM_INFO scoreboard.sv(42) @ 515: uvm_test_top.e.scb [OUT_MON] OUT_TX -> AWREADY:0 | WREADY:0 | BRESP:11 | BVALID:0 | ARREADY:1 | RDATA:0 | RRESP:0 | RVALID:0  
UVM_INFO scoreboard.sv(99) @ 515: uvm_test_top.e.scb [SCB] EXP -> waddr_done=0, wdata_done=0, addr=        32, w_data=e2c9a3fb,  mem[addr]=  13214715 | BRESP:0 | BVALID:0 |  RDATA:0 | RRESP:0 | RVALID:0  
UVM_INFO scoreboard.sv(124) @ 515: uvm_test_top.e.scb [SCB] ------------------------------------------------------------------
UVM_INFO input_monitor.sv(35) @ 525: uvm_test_top.e.aa.inp_mon [INP_MON] AWADDR=        16 ,AWPROT=100 ,AWVALID=1 ,WDATA=a6a6345d ,WVALID=0 ,WSTRB=0111 ,BREADY=1 ,ARADDR=         0 ,ARPROT=000 ,ARVALID=0 ,RREADY=0
UVM_INFO output_monitor.sv(34) @ 525: uvm_test_top.e.pa.out_mon [OUT_MON] DUT Outputs -> AWREADY:1 | WREADY:1 | BRESP:11 | BVALID:0 | ARREADY:1 | RDATA:0 | RRESP:0 | RVALID:0  
UVM_INFO scoreboard.sv(40) @ 525: uvm_test_top.e.scb [SCB] INP_TX-> reset=1 AWADDR=        16 ,AWPROT=100 ,AWVALID=1 ,WDATA=a6a6345d ,WVALID=0 ,WSTRB=0111 ,BREADY=1 ,ARADDR=         0 ,ARPROT=000 ,ARVALID=0 ,RREADY=0
UVM_INFO scoreboard.sv(42) @ 525: uvm_test_top.e.scb [OUT_MON] OUT_TX -> AWREADY:1 | WREADY:1 | BRESP:11 | BVALID:0 | ARREADY:1 | RDATA:0 | RRESP:0 | RVALID:0  
UVM_INFO scoreboard.sv(99) @ 525: uvm_test_top.e.scb [SCB] EXP -> waddr_done=1, wdata_done=0, addr=        16, w_data=e2c9a3fb,  mem[addr]=2329543446 | BRESP:0 | BVALID:0 |  RDATA:0 | RRESP:0 | RVALID:0  
UVM_INFO scoreboard.sv(124) @ 525: uvm_test_top.e.scb [SCB] ------------------------------------------------------------------
UVM_INFO input_monitor.sv(35) @ 535: uvm_test_top.e.aa.inp_mon [INP_MON] AWADDR=3855644840 ,AWPROT=101 ,AWVALID=0 ,WDATA=f111099c ,WVALID=1 ,WSTRB=0001 ,BREADY=0 ,ARADDR=         0 ,ARPROT=000 ,ARVALID=0 ,RREADY=0
UVM_INFO output_monitor.sv(34) @ 535: uvm_test_top.e.pa.out_mon [OUT_MON] DUT Outputs -> AWREADY:0 | WREADY:1 | BRESP:11 | BVALID:0 | ARREADY:1 | RDATA:0 | RRESP:0 | RVALID:0  
UVM_INFO scoreboard.sv(40) @ 535: uvm_test_top.e.scb [SCB] INP_TX-> reset=1 AWADDR=3855644840 ,AWPROT=101 ,AWVALID=0 ,WDATA=f111099c ,WVALID=1 ,WSTRB=0001 ,BREADY=0 ,ARADDR=         0 ,ARPROT=000 ,ARVALID=0 ,RREADY=0
UVM_INFO scoreboard.sv(42) @ 535: uvm_test_top.e.scb [OUT_MON] OUT_TX -> AWREADY:0 | WREADY:1 | BRESP:11 | BVALID:0 | ARREADY:1 | RDATA:0 | RRESP:0 | RVALID:0  
UVM_INFO scoreboard.sv(99) @ 535: uvm_test_top.e.scb [SCB] EXP -> waddr_done=1, wdata_done=1, addr=        16, w_data=f111099c,  mem[addr]=2329543446 | BRESP:0 | BVALID:0 |  RDATA:0 | RRESP:0 | RVALID:0  
UVM_INFO scoreboard.sv(124) @ 535: uvm_test_top.e.scb [SCB] ------------------------------------------------------------------
UVM_INFO input_monitor.sv(35) @ 545: uvm_test_top.e.aa.inp_mon [INP_MON] AWADDR=3855644840 ,AWPROT=101 ,AWVALID=0 ,WDATA=f111099c ,WVALID=0 ,WSTRB=0001 ,BREADY=1 ,ARADDR=         0 ,ARPROT=000 ,ARVALID=0 ,RREADY=0
UVM_INFO output_monitor.sv(34) @ 545: uvm_test_top.e.pa.out_mon [OUT_MON] DUT Outputs -> AWREADY:0 | WREADY:0 | BRESP:11 | BVALID:0 | ARREADY:1 | RDATA:0 | RRESP:0 | RVALID:0  
UVM_INFO scoreboard.sv(40) @ 545: uvm_test_top.e.scb [SCB] INP_TX-> reset=1 AWADDR=3855644840 ,AWPROT=101 ,AWVALID=0 ,WDATA=f111099c ,WVALID=0 ,WSTRB=0001 ,BREADY=1 ,ARADDR=         0 ,ARPROT=000 ,ARVALID=0 ,RREADY=0
UVM_INFO scoreboard.sv(42) @ 545: uvm_test_top.e.scb [OUT_MON] OUT_TX -> AWREADY:0 | WREADY:0 | BRESP:11 | BVALID:0 | ARREADY:1 | RDATA:0 | RRESP:0 | RVALID:0  
UVM_INFO scoreboard.sv(99) @ 545: uvm_test_top.e.scb [SCB] EXP -> waddr_done=1, wdata_done=1, addr=        16, w_data=f111099c,  mem[addr]=2329543580 | BRESP:0 | BVALID:0 |  RDATA:0 | RRESP:0 | RVALID:0  
UVM_INFO scoreboard.sv(124) @ 545: uvm_test_top.e.scb [SCB] ------------------------------------------------------------------
UVM_INFO input_monitor.sv(35) @ 555: uvm_test_top.e.aa.inp_mon [INP_MON] AWADDR=3855644840 ,AWPROT=101 ,AWVALID=0 ,WDATA=f111099c ,WVALID=0 ,WSTRB=0001 ,BREADY=1 ,ARADDR=         0 ,ARPROT=000 ,ARVALID=0 ,RREADY=0
UVM_INFO output_monitor.sv(34) @ 555: uvm_test_top.e.pa.out_mon [OUT_MON] DUT Outputs -> AWREADY:0 | WREADY:0 | BRESP:11 | BVALID:1 | ARREADY:1 | RDATA:0 | RRESP:0 | RVALID:0  
UVM_INFO scoreboard.sv(40) @ 555: uvm_test_top.e.scb [SCB] INP_TX-> reset=1 AWADDR=3855644840 ,AWPROT=101 ,AWVALID=0 ,WDATA=f111099c ,WVALID=0 ,WSTRB=0001 ,BREADY=1 ,ARADDR=         0 ,ARPROT=000 ,ARVALID=0 ,RREADY=0
UVM_INFO scoreboard.sv(42) @ 555: uvm_test_top.e.scb [OUT_MON] OUT_TX -> AWREADY:0 | WREADY:0 | BRESP:11 | BVALID:1 | ARREADY:1 | RDATA:0 | RRESP:0 | RVALID:0  
UVM_INFO scoreboard.sv(99) @ 555: uvm_test_top.e.scb [SCB] EXP -> waddr_done=0, wdata_done=0, addr=        16, w_data=f111099c,  mem[addr]=2329543580 | BRESP:0 | BVALID:1 |  RDATA:0 | RRESP:0 | RVALID:0  
UVM_INFO scoreboard.sv(110) @ 555: uvm_test_top.e.scb [SCB] FAIL COUNT=         11
UVM_INFO scoreboard.sv(124) @ 555: uvm_test_top.e.scb [SCB] ------------------------------------------------------------------
UVM_INFO input_monitor.sv(35) @ 565: uvm_test_top.e.aa.inp_mon [INP_MON] AWADDR=        36 ,AWPROT=000 ,AWVALID=1 ,WDATA=3bb20411 ,WVALID=0 ,WSTRB=1010 ,BREADY=1 ,ARADDR=         0 ,ARPROT=000 ,ARVALID=0 ,RREADY=0
UVM_INFO output_monitor.sv(34) @ 565: uvm_test_top.e.pa.out_mon [OUT_MON] DUT Outputs -> AWREADY:0 | WREADY:0 | BRESP:11 | BVALID:0 | ARREADY:1 | RDATA:0 | RRESP:0 | RVALID:0  
UVM_INFO scoreboard.sv(40) @ 565: uvm_test_top.e.scb [SCB] INP_TX-> reset=1 AWADDR=        36 ,AWPROT=000 ,AWVALID=1 ,WDATA=3bb20411 ,WVALID=0 ,WSTRB=1010 ,BREADY=1 ,ARADDR=         0 ,ARPROT=000 ,ARVALID=0 ,RREADY=0
UVM_INFO scoreboard.sv(42) @ 565: uvm_test_top.e.scb [OUT_MON] OUT_TX -> AWREADY:0 | WREADY:0 | BRESP:11 | BVALID:0 | ARREADY:1 | RDATA:0 | RRESP:0 | RVALID:0  
UVM_INFO scoreboard.sv(99) @ 565: uvm_test_top.e.scb [SCB] EXP -> waddr_done=0, wdata_done=0, addr=        16, w_data=f111099c,  mem[addr]=2329543580 | BRESP:0 | BVALID:0 |  RDATA:0 | RRESP:0 | RVALID:0  
UVM_INFO scoreboard.sv(124) @ 565: uvm_test_top.e.scb [SCB] ------------------------------------------------------------------
UVM_INFO input_monitor.sv(35) @ 575: uvm_test_top.e.aa.inp_mon [INP_MON] AWADDR=        36 ,AWPROT=000 ,AWVALID=1 ,WDATA=3bb20411 ,WVALID=0 ,WSTRB=1010 ,BREADY=1 ,ARADDR=         0 ,ARPROT=000 ,ARVALID=0 ,RREADY=0
UVM_INFO output_monitor.sv(34) @ 575: uvm_test_top.e.pa.out_mon [OUT_MON] DUT Outputs -> AWREADY:1 | WREADY:1 | BRESP:11 | BVALID:0 | ARREADY:1 | RDATA:0 | RRESP:0 | RVALID:0  
UVM_INFO scoreboard.sv(40) @ 575: uvm_test_top.e.scb [SCB] INP_TX-> reset=1 AWADDR=        36 ,AWPROT=000 ,AWVALID=1 ,WDATA=3bb20411 ,WVALID=0 ,WSTRB=1010 ,BREADY=1 ,ARADDR=         0 ,ARPROT=000 ,ARVALID=0 ,RREADY=0
UVM_INFO scoreboard.sv(42) @ 575: uvm_test_top.e.scb [OUT_MON] OUT_TX -> AWREADY:1 | WREADY:1 | BRESP:11 | BVALID:0 | ARREADY:1 | RDATA:0 | RRESP:0 | RVALID:0  
UVM_INFO scoreboard.sv(99) @ 575: uvm_test_top.e.scb [SCB] EXP -> waddr_done=1, wdata_done=0, addr=        36, w_data=f111099c,  mem[addr]=   5136896 | BRESP:0 | BVALID:0 |  RDATA:0 | RRESP:0 | RVALID:0  
UVM_INFO scoreboard.sv(124) @ 575: uvm_test_top.e.scb [SCB] ------------------------------------------------------------------
UVM_INFO input_monitor.sv(35) @ 585: uvm_test_top.e.aa.inp_mon [INP_MON] AWADDR=1856696027 ,AWPROT=011 ,AWVALID=0 ,WDATA=92190fcd ,WVALID=1 ,WSTRB=0011 ,BREADY=0 ,ARADDR=         0 ,ARPROT=000 ,ARVALID=0 ,RREADY=0
UVM_INFO output_monitor.sv(34) @ 585: uvm_test_top.e.pa.out_mon [OUT_MON] DUT Outputs -> AWREADY:0 | WREADY:1 | BRESP:11 | BVALID:0 | ARREADY:1 | RDATA:0 | RRESP:0 | RVALID:0  
UVM_INFO scoreboard.sv(40) @ 585: uvm_test_top.e.scb [SCB] INP_TX-> reset=1 AWADDR=1856696027 ,AWPROT=011 ,AWVALID=0 ,WDATA=92190fcd ,WVALID=1 ,WSTRB=0011 ,BREADY=0 ,ARADDR=         0 ,ARPROT=000 ,ARVALID=0 ,RREADY=0
UVM_INFO scoreboard.sv(42) @ 585: uvm_test_top.e.scb [OUT_MON] OUT_TX -> AWREADY:0 | WREADY:1 | BRESP:11 | BVALID:0 | ARREADY:1 | RDATA:0 | RRESP:0 | RVALID:0  
UVM_INFO scoreboard.sv(99) @ 585: uvm_test_top.e.scb [SCB] EXP -> waddr_done=1, wdata_done=1, addr=        36, w_data=92190fcd,  mem[addr]=   5136896 | BRESP:0 | BVALID:0 |  RDATA:0 | RRESP:0 | RVALID:0  
UVM_INFO scoreboard.sv(124) @ 585: uvm_test_top.e.scb [SCB] ------------------------------------------------------------------
UVM_INFO input_monitor.sv(35) @ 595: uvm_test_top.e.aa.inp_mon [INP_MON] AWADDR=1856696027 ,AWPROT=011 ,AWVALID=0 ,WDATA=92190fcd ,WVALID=0 ,WSTRB=0011 ,BREADY=1 ,ARADDR=         0 ,ARPROT=000 ,ARVALID=0 ,RREADY=0
UVM_INFO output_monitor.sv(34) @ 595: uvm_test_top.e.pa.out_mon [OUT_MON] DUT Outputs -> AWREADY:0 | WREADY:0 | BRESP:11 | BVALID:0 | ARREADY:1 | RDATA:0 | RRESP:0 | RVALID:0  
UVM_INFO scoreboard.sv(40) @ 595: uvm_test_top.e.scb [SCB] INP_TX-> reset=1 AWADDR=1856696027 ,AWPROT=011 ,AWVALID=0 ,WDATA=92190fcd ,WVALID=0 ,WSTRB=0011 ,BREADY=1 ,ARADDR=         0 ,ARPROT=000 ,ARVALID=0 ,RREADY=0
UVM_INFO scoreboard.sv(42) @ 595: uvm_test_top.e.scb [OUT_MON] OUT_TX -> AWREADY:0 | WREADY:0 | BRESP:11 | BVALID:0 | ARREADY:1 | RDATA:0 | RRESP:0 | RVALID:0  
UVM_INFO scoreboard.sv(99) @ 595: uvm_test_top.e.scb [SCB] EXP -> waddr_done=1, wdata_done=1, addr=        36, w_data=92190fcd,  mem[addr]=   5115853 | BRESP:0 | BVALID:0 |  RDATA:0 | RRESP:0 | RVALID:0  
UVM_INFO scoreboard.sv(124) @ 595: uvm_test_top.e.scb [SCB] ------------------------------------------------------------------
UVM_INFO input_monitor.sv(35) @ 605: uvm_test_top.e.aa.inp_mon [INP_MON] AWADDR=1856696027 ,AWPROT=011 ,AWVALID=0 ,WDATA=92190fcd ,WVALID=0 ,WSTRB=0011 ,BREADY=1 ,ARADDR=         0 ,ARPROT=000 ,ARVALID=0 ,RREADY=0
UVM_INFO output_monitor.sv(34) @ 605: uvm_test_top.e.pa.out_mon [OUT_MON] DUT Outputs -> AWREADY:0 | WREADY:0 | BRESP:11 | BVALID:1 | ARREADY:1 | RDATA:0 | RRESP:0 | RVALID:0  
UVM_INFO scoreboard.sv(40) @ 605: uvm_test_top.e.scb [SCB] INP_TX-> reset=1 AWADDR=1856696027 ,AWPROT=011 ,AWVALID=0 ,WDATA=92190fcd ,WVALID=0 ,WSTRB=0011 ,BREADY=1 ,ARADDR=         0 ,ARPROT=000 ,ARVALID=0 ,RREADY=0
UVM_INFO scoreboard.sv(42) @ 605: uvm_test_top.e.scb [OUT_MON] OUT_TX -> AWREADY:0 | WREADY:0 | BRESP:11 | BVALID:1 | ARREADY:1 | RDATA:0 | RRESP:0 | RVALID:0  
UVM_INFO scoreboard.sv(99) @ 605: uvm_test_top.e.scb [SCB] EXP -> waddr_done=0, wdata_done=0, addr=        36, w_data=92190fcd,  mem[addr]=   5115853 | BRESP:0 | BVALID:1 |  RDATA:0 | RRESP:0 | RVALID:0  
UVM_INFO scoreboard.sv(110) @ 605: uvm_test_top.e.scb [SCB] FAIL COUNT=         12
UVM_INFO scoreboard.sv(124) @ 605: uvm_test_top.e.scb [SCB] ------------------------------------------------------------------
UVM_INFO input_monitor.sv(35) @ 615: uvm_test_top.e.aa.inp_mon [INP_MON] AWADDR=        28 ,AWPROT=001 ,AWVALID=1 ,WDATA=cab3c5ea ,WVALID=0 ,WSTRB=1011 ,BREADY=1 ,ARADDR=         0 ,ARPROT=000 ,ARVALID=0 ,RREADY=0
UVM_INFO output_monitor.sv(34) @ 615: uvm_test_top.e.pa.out_mon [OUT_MON] DUT Outputs -> AWREADY:0 | WREADY:0 | BRESP:11 | BVALID:0 | ARREADY:1 | RDATA:0 | RRESP:0 | RVALID:0  
UVM_INFO scoreboard.sv(40) @ 615: uvm_test_top.e.scb [SCB] INP_TX-> reset=1 AWADDR=        28 ,AWPROT=001 ,AWVALID=1 ,WDATA=cab3c5ea ,WVALID=0 ,WSTRB=1011 ,BREADY=1 ,ARADDR=         0 ,ARPROT=000 ,ARVALID=0 ,RREADY=0
UVM_INFO scoreboard.sv(42) @ 615: uvm_test_top.e.scb [OUT_MON] OUT_TX -> AWREADY:0 | WREADY:0 | BRESP:11 | BVALID:0 | ARREADY:1 | RDATA:0 | RRESP:0 | RVALID:0  
UVM_INFO scoreboard.sv(99) @ 615: uvm_test_top.e.scb [SCB] EXP -> waddr_done=0, wdata_done=0, addr=        36, w_data=92190fcd,  mem[addr]=   5115853 | BRESP:0 | BVALID:0 |  RDATA:0 | RRESP:0 | RVALID:0  
UVM_INFO scoreboard.sv(124) @ 615: uvm_test_top.e.scb [SCB] ------------------------------------------------------------------
UVM_INFO input_monitor.sv(35) @ 625: uvm_test_top.e.aa.inp_mon [INP_MON] AWADDR=        28 ,AWPROT=001 ,AWVALID=1 ,WDATA=cab3c5ea ,WVALID=0 ,WSTRB=1011 ,BREADY=1 ,ARADDR=         0 ,ARPROT=000 ,ARVALID=0 ,RREADY=0
UVM_INFO output_monitor.sv(34) @ 625: uvm_test_top.e.pa.out_mon [OUT_MON] DUT Outputs -> AWREADY:1 | WREADY:1 | BRESP:11 | BVALID:0 | ARREADY:1 | RDATA:0 | RRESP:0 | RVALID:0  
UVM_INFO scoreboard.sv(40) @ 625: uvm_test_top.e.scb [SCB] INP_TX-> reset=1 AWADDR=        28 ,AWPROT=001 ,AWVALID=1 ,WDATA=cab3c5ea ,WVALID=0 ,WSTRB=1011 ,BREADY=1 ,ARADDR=         0 ,ARPROT=000 ,ARVALID=0 ,RREADY=0
UVM_INFO scoreboard.sv(42) @ 625: uvm_test_top.e.scb [OUT_MON] OUT_TX -> AWREADY:1 | WREADY:1 | BRESP:11 | BVALID:0 | ARREADY:1 | RDATA:0 | RRESP:0 | RVALID:0  
UVM_INFO scoreboard.sv(99) @ 625: uvm_test_top.e.scb [SCB] EXP -> waddr_done=1, wdata_done=0, addr=        28, w_data=92190fcd,  mem[addr]=3311599616 | BRESP:0 | BVALID:0 |  RDATA:0 | RRESP:0 | RVALID:0  
UVM_INFO scoreboard.sv(124) @ 625: uvm_test_top.e.scb [SCB] ------------------------------------------------------------------
UVM_INFO input_monitor.sv(35) @ 635: uvm_test_top.e.aa.inp_mon [INP_MON] AWADDR= 543721562 ,AWPROT=000 ,AWVALID=0 ,WDATA=c5008cd8 ,WVALID=1 ,WSTRB=0011 ,BREADY=0 ,ARADDR=         0 ,ARPROT=000 ,ARVALID=0 ,RREADY=0
UVM_INFO output_monitor.sv(34) @ 635: uvm_test_top.e.pa.out_mon [OUT_MON] DUT Outputs -> AWREADY:0 | WREADY:1 | BRESP:11 | BVALID:0 | ARREADY:1 | RDATA:0 | RRESP:0 | RVALID:0  
UVM_INFO scoreboard.sv(40) @ 635: uvm_test_top.e.scb [SCB] INP_TX-> reset=1 AWADDR= 543721562 ,AWPROT=000 ,AWVALID=0 ,WDATA=c5008cd8 ,WVALID=1 ,WSTRB=0011 ,BREADY=0 ,ARADDR=         0 ,ARPROT=000 ,ARVALID=0 ,RREADY=0
UVM_INFO scoreboard.sv(42) @ 635: uvm_test_top.e.scb [OUT_MON] OUT_TX -> AWREADY:0 | WREADY:1 | BRESP:11 | BVALID:0 | ARREADY:1 | RDATA:0 | RRESP:0 | RVALID:0  
UVM_INFO scoreboard.sv(99) @ 635: uvm_test_top.e.scb [SCB] EXP -> waddr_done=1, wdata_done=1, addr=        28, w_data=c5008cd8,  mem[addr]=3311599616 | BRESP:0 | BVALID:0 |  RDATA:0 | RRESP:0 | RVALID:0  
UVM_INFO scoreboard.sv(124) @ 635: uvm_test_top.e.scb [SCB] ------------------------------------------------------------------
UVM_INFO input_monitor.sv(35) @ 645: uvm_test_top.e.aa.inp_mon [INP_MON] AWADDR= 543721562 ,AWPROT=000 ,AWVALID=0 ,WDATA=c5008cd8 ,WVALID=0 ,WSTRB=0011 ,BREADY=1 ,ARADDR=         0 ,ARPROT=000 ,ARVALID=0 ,RREADY=0
UVM_INFO output_monitor.sv(34) @ 645: uvm_test_top.e.pa.out_mon [OUT_MON] DUT Outputs -> AWREADY:0 | WREADY:0 | BRESP:11 | BVALID:0 | ARREADY:1 | RDATA:0 | RRESP:0 | RVALID:0  
UVM_INFO scoreboard.sv(40) @ 645: uvm_test_top.e.scb [SCB] INP_TX-> reset=1 AWADDR= 543721562 ,AWPROT=000 ,AWVALID=0 ,WDATA=c5008cd8 ,WVALID=0 ,WSTRB=0011 ,BREADY=1 ,ARADDR=         0 ,ARPROT=000 ,ARVALID=0 ,RREADY=0
UVM_INFO scoreboard.sv(42) @ 645: uvm_test_top.e.scb [OUT_MON] OUT_TX -> AWREADY:0 | WREADY:0 | BRESP:11 | BVALID:0 | ARREADY:1 | RDATA:0 | RRESP:0 | RVALID:0  
UVM_INFO scoreboard.sv(99) @ 645: uvm_test_top.e.scb [SCB] EXP -> waddr_done=1, wdata_done=1, addr=        28, w_data=c5008cd8,  mem[addr]=3311635672 | BRESP:0 | BVALID:0 |  RDATA:0 | RRESP:0 | RVALID:0  
UVM_INFO scoreboard.sv(124) @ 645: uvm_test_top.e.scb [SCB] ------------------------------------------------------------------
UVM_INFO input_monitor.sv(35) @ 655: uvm_test_top.e.aa.inp_mon [INP_MON] AWADDR= 543721562 ,AWPROT=000 ,AWVALID=0 ,WDATA=c5008cd8 ,WVALID=0 ,WSTRB=0011 ,BREADY=1 ,ARADDR=         0 ,ARPROT=000 ,ARVALID=0 ,RREADY=0
UVM_INFO output_monitor.sv(34) @ 655: uvm_test_top.e.pa.out_mon [OUT_MON] DUT Outputs -> AWREADY:0 | WREADY:0 | BRESP:11 | BVALID:1 | ARREADY:1 | RDATA:0 | RRESP:0 | RVALID:0  
UVM_INFO scoreboard.sv(40) @ 655: uvm_test_top.e.scb [SCB] INP_TX-> reset=1 AWADDR= 543721562 ,AWPROT=000 ,AWVALID=0 ,WDATA=c5008cd8 ,WVALID=0 ,WSTRB=0011 ,BREADY=1 ,ARADDR=         0 ,ARPROT=000 ,ARVALID=0 ,RREADY=0
UVM_INFO scoreboard.sv(42) @ 655: uvm_test_top.e.scb [OUT_MON] OUT_TX -> AWREADY:0 | WREADY:0 | BRESP:11 | BVALID:1 | ARREADY:1 | RDATA:0 | RRESP:0 | RVALID:0  
UVM_INFO scoreboard.sv(99) @ 655: uvm_test_top.e.scb [SCB] EXP -> waddr_done=0, wdata_done=0, addr=        28, w_data=c5008cd8,  mem[addr]=3311635672 | BRESP:0 | BVALID:1 |  RDATA:0 | RRESP:0 | RVALID:0  
UVM_INFO scoreboard.sv(110) @ 655: uvm_test_top.e.scb [SCB] FAIL COUNT=         13
UVM_INFO scoreboard.sv(124) @ 655: uvm_test_top.e.scb [SCB] ------------------------------------------------------------------
UVM_INFO input_monitor.sv(35) @ 665: uvm_test_top.e.aa.inp_mon [INP_MON] AWADDR=        32 ,AWPROT=110 ,AWVALID=1 ,WDATA=3b4ce795 ,WVALID=0 ,WSTRB=1100 ,BREADY=1 ,ARADDR=         0 ,ARPROT=000 ,ARVALID=0 ,RREADY=0
UVM_INFO output_monitor.sv(34) @ 665: uvm_test_top.e.pa.out_mon [OUT_MON] DUT Outputs -> AWREADY:0 | WREADY:0 | BRESP:11 | BVALID:0 | ARREADY:1 | RDATA:0 | RRESP:0 | RVALID:0  
UVM_INFO scoreboard.sv(40) @ 665: uvm_test_top.e.scb [SCB] INP_TX-> reset=1 AWADDR=        32 ,AWPROT=110 ,AWVALID=1 ,WDATA=3b4ce795 ,WVALID=0 ,WSTRB=1100 ,BREADY=1 ,ARADDR=         0 ,ARPROT=000 ,ARVALID=0 ,RREADY=0
UVM_INFO scoreboard.sv(42) @ 665: uvm_test_top.e.scb [OUT_MON] OUT_TX -> AWREADY:0 | WREADY:0 | BRESP:11 | BVALID:0 | ARREADY:1 | RDATA:0 | RRESP:0 | RVALID:0  
UVM_INFO scoreboard.sv(99) @ 665: uvm_test_top.e.scb [SCB] EXP -> waddr_done=0, wdata_done=0, addr=        28, w_data=c5008cd8,  mem[addr]=3311635672 | BRESP:0 | BVALID:0 |  RDATA:0 | RRESP:0 | RVALID:0  
UVM_INFO scoreboard.sv(124) @ 665: uvm_test_top.e.scb [SCB] ------------------------------------------------------------------
UVM_INFO input_monitor.sv(35) @ 675: uvm_test_top.e.aa.inp_mon [INP_MON] AWADDR=        32 ,AWPROT=110 ,AWVALID=1 ,WDATA=3b4ce795 ,WVALID=0 ,WSTRB=1100 ,BREADY=1 ,ARADDR=         0 ,ARPROT=000 ,ARVALID=0 ,RREADY=0
UVM_INFO output_monitor.sv(34) @ 675: uvm_test_top.e.pa.out_mon [OUT_MON] DUT Outputs -> AWREADY:1 | WREADY:1 | BRESP:11 | BVALID:0 | ARREADY:1 | RDATA:0 | RRESP:0 | RVALID:0  
UVM_INFO scoreboard.sv(40) @ 675: uvm_test_top.e.scb [SCB] INP_TX-> reset=1 AWADDR=        32 ,AWPROT=110 ,AWVALID=1 ,WDATA=3b4ce795 ,WVALID=0 ,WSTRB=1100 ,BREADY=1 ,ARADDR=         0 ,ARPROT=000 ,ARVALID=0 ,RREADY=0
UVM_INFO scoreboard.sv(42) @ 675: uvm_test_top.e.scb [OUT_MON] OUT_TX -> AWREADY:1 | WREADY:1 | BRESP:11 | BVALID:0 | ARREADY:1 | RDATA:0 | RRESP:0 | RVALID:0  
UVM_INFO scoreboard.sv(99) @ 675: uvm_test_top.e.scb [SCB] EXP -> waddr_done=1, wdata_done=0, addr=        32, w_data=c5008cd8,  mem[addr]=  13214715 | BRESP:0 | BVALID:0 |  RDATA:0 | RRESP:0 | RVALID:0  
UVM_INFO scoreboard.sv(124) @ 675: uvm_test_top.e.scb [SCB] ------------------------------------------------------------------
UVM_INFO input_monitor.sv(35) @ 685: uvm_test_top.e.aa.inp_mon [INP_MON] AWADDR= 282046937 ,AWPROT=100 ,AWVALID=0 ,WDATA=9744e4f9 ,WVALID=1 ,WSTRB=0100 ,BREADY=0 ,ARADDR=         0 ,ARPROT=000 ,ARVALID=0 ,RREADY=0
UVM_INFO output_monitor.sv(34) @ 685: uvm_test_top.e.pa.out_mon [OUT_MON] DUT Outputs -> AWREADY:0 | WREADY:1 | BRESP:11 | BVALID:0 | ARREADY:1 | RDATA:0 | RRESP:0 | RVALID:0  
UVM_INFO scoreboard.sv(40) @ 685: uvm_test_top.e.scb [SCB] INP_TX-> reset=1 AWADDR= 282046937 ,AWPROT=100 ,AWVALID=0 ,WDATA=9744e4f9 ,WVALID=1 ,WSTRB=0100 ,BREADY=0 ,ARADDR=         0 ,ARPROT=000 ,ARVALID=0 ,RREADY=0
UVM_INFO scoreboard.sv(42) @ 685: uvm_test_top.e.scb [OUT_MON] OUT_TX -> AWREADY:0 | WREADY:1 | BRESP:11 | BVALID:0 | ARREADY:1 | RDATA:0 | RRESP:0 | RVALID:0  
UVM_INFO scoreboard.sv(99) @ 685: uvm_test_top.e.scb [SCB] EXP -> waddr_done=1, wdata_done=1, addr=        32, w_data=9744e4f9,  mem[addr]=  13214715 | BRESP:0 | BVALID:0 |  RDATA:0 | RRESP:0 | RVALID:0  
UVM_INFO scoreboard.sv(124) @ 685: uvm_test_top.e.scb [SCB] ------------------------------------------------------------------
UVM_INFO input_monitor.sv(35) @ 695: uvm_test_top.e.aa.inp_mon [INP_MON] AWADDR= 282046937 ,AWPROT=100 ,AWVALID=0 ,WDATA=9744e4f9 ,WVALID=0 ,WSTRB=0100 ,BREADY=1 ,ARADDR=         0 ,ARPROT=000 ,ARVALID=0 ,RREADY=0
UVM_INFO output_monitor.sv(34) @ 695: uvm_test_top.e.pa.out_mon [OUT_MON] DUT Outputs -> AWREADY:0 | WREADY:0 | BRESP:11 | BVALID:0 | ARREADY:1 | RDATA:0 | RRESP:0 | RVALID:0  
UVM_INFO scoreboard.sv(40) @ 695: uvm_test_top.e.scb [SCB] INP_TX-> reset=1 AWADDR= 282046937 ,AWPROT=100 ,AWVALID=0 ,WDATA=9744e4f9 ,WVALID=0 ,WSTRB=0100 ,BREADY=1 ,ARADDR=         0 ,ARPROT=000 ,ARVALID=0 ,RREADY=0
UVM_INFO scoreboard.sv(42) @ 695: uvm_test_top.e.scb [OUT_MON] OUT_TX -> AWREADY:0 | WREADY:0 | BRESP:11 | BVALID:0 | ARREADY:1 | RDATA:0 | RRESP:0 | RVALID:0  
UVM_INFO scoreboard.sv(99) @ 695: uvm_test_top.e.scb [SCB] EXP -> waddr_done=1, wdata_done=1, addr=        32, w_data=9744e4f9,  mem[addr]=   4498427 | BRESP:0 | BVALID:0 |  RDATA:0 | RRESP:0 | RVALID:0  
UVM_INFO scoreboard.sv(124) @ 695: uvm_test_top.e.scb [SCB] ------------------------------------------------------------------
UVM_INFO input_monitor.sv(35) @ 705: uvm_test_top.e.aa.inp_mon [INP_MON] AWADDR= 282046937 ,AWPROT=100 ,AWVALID=0 ,WDATA=9744e4f9 ,WVALID=0 ,WSTRB=0100 ,BREADY=1 ,ARADDR=         0 ,ARPROT=000 ,ARVALID=0 ,RREADY=0
UVM_INFO output_monitor.sv(34) @ 705: uvm_test_top.e.pa.out_mon [OUT_MON] DUT Outputs -> AWREADY:0 | WREADY:0 | BRESP:11 | BVALID:1 | ARREADY:1 | RDATA:0 | RRESP:0 | RVALID:0  
UVM_INFO scoreboard.sv(40) @ 705: uvm_test_top.e.scb [SCB] INP_TX-> reset=1 AWADDR= 282046937 ,AWPROT=100 ,AWVALID=0 ,WDATA=9744e4f9 ,WVALID=0 ,WSTRB=0100 ,BREADY=1 ,ARADDR=         0 ,ARPROT=000 ,ARVALID=0 ,RREADY=0
UVM_INFO scoreboard.sv(42) @ 705: uvm_test_top.e.scb [OUT_MON] OUT_TX -> AWREADY:0 | WREADY:0 | BRESP:11 | BVALID:1 | ARREADY:1 | RDATA:0 | RRESP:0 | RVALID:0  
UVM_INFO scoreboard.sv(99) @ 705: uvm_test_top.e.scb [SCB] EXP -> waddr_done=0, wdata_done=0, addr=        32, w_data=9744e4f9,  mem[addr]=   4498427 | BRESP:0 | BVALID:1 |  RDATA:0 | RRESP:0 | RVALID:0  
UVM_INFO scoreboard.sv(110) @ 705: uvm_test_top.e.scb [SCB] FAIL COUNT=         14
UVM_INFO scoreboard.sv(124) @ 705: uvm_test_top.e.scb [SCB] ------------------------------------------------------------------
UVM_INFO input_monitor.sv(35) @ 715: uvm_test_top.e.aa.inp_mon [INP_MON] AWADDR=         4 ,AWPROT=100 ,AWVALID=1 ,WDATA=747b6825 ,WVALID=0 ,WSTRB=1110 ,BREADY=1 ,ARADDR=         0 ,ARPROT=000 ,ARVALID=0 ,RREADY=0
UVM_INFO output_monitor.sv(34) @ 715: uvm_test_top.e.pa.out_mon [OUT_MON] DUT Outputs -> AWREADY:0 | WREADY:0 | BRESP:11 | BVALID:0 | ARREADY:1 | RDATA:0 | RRESP:0 | RVALID:0  
UVM_INFO scoreboard.sv(40) @ 715: uvm_test_top.e.scb [SCB] INP_TX-> reset=1 AWADDR=         4 ,AWPROT=100 ,AWVALID=1 ,WDATA=747b6825 ,WVALID=0 ,WSTRB=1110 ,BREADY=1 ,ARADDR=         0 ,ARPROT=000 ,ARVALID=0 ,RREADY=0
UVM_INFO scoreboard.sv(42) @ 715: uvm_test_top.e.scb [OUT_MON] OUT_TX -> AWREADY:0 | WREADY:0 | BRESP:11 | BVALID:0 | ARREADY:1 | RDATA:0 | RRESP:0 | RVALID:0  
UVM_INFO scoreboard.sv(99) @ 715: uvm_test_top.e.scb [SCB] EXP -> waddr_done=0, wdata_done=0, addr=        32, w_data=9744e4f9,  mem[addr]=   4498427 | BRESP:0 | BVALID:0 |  RDATA:0 | RRESP:0 | RVALID:0  
UVM_INFO scoreboard.sv(124) @ 715: uvm_test_top.e.scb [SCB] ------------------------------------------------------------------
UVM_INFO input_monitor.sv(35) @ 725: uvm_test_top.e.aa.inp_mon [INP_MON] AWADDR=         4 ,AWPROT=100 ,AWVALID=1 ,WDATA=747b6825 ,WVALID=0 ,WSTRB=1110 ,BREADY=1 ,ARADDR=         0 ,ARPROT=000 ,ARVALID=0 ,RREADY=0
UVM_INFO output_monitor.sv(34) @ 725: uvm_test_top.e.pa.out_mon [OUT_MON] DUT Outputs -> AWREADY:1 | WREADY:1 | BRESP:11 | BVALID:0 | ARREADY:1 | RDATA:0 | RRESP:0 | RVALID:0  
UVM_INFO scoreboard.sv(40) @ 725: uvm_test_top.e.scb [SCB] INP_TX-> reset=1 AWADDR=         4 ,AWPROT=100 ,AWVALID=1 ,WDATA=747b6825 ,WVALID=0 ,WSTRB=1110 ,BREADY=1 ,ARADDR=         0 ,ARPROT=000 ,ARVALID=0 ,RREADY=0
UVM_INFO scoreboard.sv(42) @ 725: uvm_test_top.e.scb [OUT_MON] OUT_TX -> AWREADY:1 | WREADY:1 | BRESP:11 | BVALID:0 | ARREADY:1 | RDATA:0 | RRESP:0 | RVALID:0  
UVM_INFO scoreboard.sv(99) @ 725: uvm_test_top.e.scb [SCB] EXP -> waddr_done=1, wdata_done=0, addr=         4, w_data=9744e4f9,  mem[addr]=     51200 | BRESP:0 | BVALID:0 |  RDATA:0 | RRESP:0 | RVALID:0  
UVM_INFO scoreboard.sv(124) @ 725: uvm_test_top.e.scb [SCB] ------------------------------------------------------------------
UVM_INFO input_monitor.sv(35) @ 735: uvm_test_top.e.aa.inp_mon [INP_MON] AWADDR=1379477431 ,AWPROT=000 ,AWVALID=0 ,WDATA=9aaf6bfa ,WVALID=1 ,WSTRB=1000 ,BREADY=0 ,ARADDR=         0 ,ARPROT=000 ,ARVALID=0 ,RREADY=0
UVM_INFO output_monitor.sv(34) @ 735: uvm_test_top.e.pa.out_mon [OUT_MON] DUT Outputs -> AWREADY:0 | WREADY:1 | BRESP:11 | BVALID:0 | ARREADY:1 | RDATA:0 | RRESP:0 | RVALID:0  
UVM_INFO scoreboard.sv(40) @ 735: uvm_test_top.e.scb [SCB] INP_TX-> reset=1 AWADDR=1379477431 ,AWPROT=000 ,AWVALID=0 ,WDATA=9aaf6bfa ,WVALID=1 ,WSTRB=1000 ,BREADY=0 ,ARADDR=         0 ,ARPROT=000 ,ARVALID=0 ,RREADY=0
UVM_INFO scoreboard.sv(42) @ 735: uvm_test_top.e.scb [OUT_MON] OUT_TX -> AWREADY:0 | WREADY:1 | BRESP:11 | BVALID:0 | ARREADY:1 | RDATA:0 | RRESP:0 | RVALID:0  
UVM_INFO scoreboard.sv(99) @ 735: uvm_test_top.e.scb [SCB] EXP -> waddr_done=1, wdata_done=1, addr=         4, w_data=9aaf6bfa,  mem[addr]=     51200 | BRESP:0 | BVALID:0 |  RDATA:0 | RRESP:0 | RVALID:0  
UVM_INFO scoreboard.sv(124) @ 735: uvm_test_top.e.scb [SCB] ------------------------------------------------------------------
UVM_INFO input_monitor.sv(35) @ 745: uvm_test_top.e.aa.inp_mon [INP_MON] AWADDR=1379477431 ,AWPROT=000 ,AWVALID=0 ,WDATA=9aaf6bfa ,WVALID=0 ,WSTRB=1000 ,BREADY=1 ,ARADDR=         0 ,ARPROT=000 ,ARVALID=0 ,RREADY=0
UVM_INFO output_monitor.sv(34) @ 745: uvm_test_top.e.pa.out_mon [OUT_MON] DUT Outputs -> AWREADY:0 | WREADY:0 | BRESP:11 | BVALID:0 | ARREADY:1 | RDATA:0 | RRESP:0 | RVALID:0  
UVM_INFO scoreboard.sv(40) @ 745: uvm_test_top.e.scb [SCB] INP_TX-> reset=1 AWADDR=1379477431 ,AWPROT=000 ,AWVALID=0 ,WDATA=9aaf6bfa ,WVALID=0 ,WSTRB=1000 ,BREADY=1 ,ARADDR=         0 ,ARPROT=000 ,ARVALID=0 ,RREADY=0
UVM_INFO scoreboard.sv(42) @ 745: uvm_test_top.e.scb [OUT_MON] OUT_TX -> AWREADY:0 | WREADY:0 | BRESP:11 | BVALID:0 | ARREADY:1 | RDATA:0 | RRESP:0 | RVALID:0  
UVM_INFO scoreboard.sv(99) @ 745: uvm_test_top.e.scb [SCB] EXP -> waddr_done=1, wdata_done=1, addr=         4, w_data=9aaf6bfa,  mem[addr]=2583742464 | BRESP:0 | BVALID:0 |  RDATA:0 | RRESP:0 | RVALID:0  
UVM_INFO scoreboard.sv(124) @ 745: uvm_test_top.e.scb [SCB] ------------------------------------------------------------------
UVM_INFO input_monitor.sv(35) @ 755: uvm_test_top.e.aa.inp_mon [INP_MON] AWADDR=1379477431 ,AWPROT=000 ,AWVALID=0 ,WDATA=9aaf6bfa ,WVALID=0 ,WSTRB=1000 ,BREADY=1 ,ARADDR=         0 ,ARPROT=000 ,ARVALID=0 ,RREADY=0
UVM_INFO output_monitor.sv(34) @ 755: uvm_test_top.e.pa.out_mon [OUT_MON] DUT Outputs -> AWREADY:0 | WREADY:0 | BRESP:11 | BVALID:1 | ARREADY:1 | RDATA:0 | RRESP:0 | RVALID:0  
UVM_INFO scoreboard.sv(40) @ 755: uvm_test_top.e.scb [SCB] INP_TX-> reset=1 AWADDR=1379477431 ,AWPROT=000 ,AWVALID=0 ,WDATA=9aaf6bfa ,WVALID=0 ,WSTRB=1000 ,BREADY=1 ,ARADDR=         0 ,ARPROT=000 ,ARVALID=0 ,RREADY=0
UVM_INFO scoreboard.sv(42) @ 755: uvm_test_top.e.scb [OUT_MON] OUT_TX -> AWREADY:0 | WREADY:0 | BRESP:11 | BVALID:1 | ARREADY:1 | RDATA:0 | RRESP:0 | RVALID:0  
UVM_INFO scoreboard.sv(99) @ 755: uvm_test_top.e.scb [SCB] EXP -> waddr_done=0, wdata_done=0, addr=         4, w_data=9aaf6bfa,  mem[addr]=2583742464 | BRESP:0 | BVALID:1 |  RDATA:0 | RRESP:0 | RVALID:0  
UVM_INFO scoreboard.sv(110) @ 755: uvm_test_top.e.scb [SCB] FAIL COUNT=         15
UVM_INFO scoreboard.sv(124) @ 755: uvm_test_top.e.scb [SCB] ------------------------------------------------------------------
UVM_INFO input_monitor.sv(35) @ 765: uvm_test_top.e.aa.inp_mon [INP_MON] AWADDR=        16 ,AWPROT=001 ,AWVALID=1 ,WDATA=a6de649e ,WVALID=0 ,WSTRB=1100 ,BREADY=1 ,ARADDR=         0 ,ARPROT=000 ,ARVALID=0 ,RREADY=0
UVM_INFO output_monitor.sv(34) @ 765: uvm_test_top.e.pa.out_mon [OUT_MON] DUT Outputs -> AWREADY:0 | WREADY:0 | BRESP:11 | BVALID:0 | ARREADY:1 | RDATA:0 | RRESP:0 | RVALID:0  
UVM_INFO scoreboard.sv(40) @ 765: uvm_test_top.e.scb [SCB] INP_TX-> reset=1 AWADDR=        16 ,AWPROT=001 ,AWVALID=1 ,WDATA=a6de649e ,WVALID=0 ,WSTRB=1100 ,BREADY=1 ,ARADDR=         0 ,ARPROT=000 ,ARVALID=0 ,RREADY=0
UVM_INFO scoreboard.sv(42) @ 765: uvm_test_top.e.scb [OUT_MON] OUT_TX -> AWREADY:0 | WREADY:0 | BRESP:11 | BVALID:0 | ARREADY:1 | RDATA:0 | RRESP:0 | RVALID:0  
UVM_INFO scoreboard.sv(99) @ 765: uvm_test_top.e.scb [SCB] EXP -> waddr_done=0, wdata_done=0, addr=         4, w_data=9aaf6bfa,  mem[addr]=2583742464 | BRESP:0 | BVALID:0 |  RDATA:0 | RRESP:0 | RVALID:0  
UVM_INFO scoreboard.sv(124) @ 765: uvm_test_top.e.scb [SCB] ------------------------------------------------------------------
UVM_INFO input_monitor.sv(35) @ 775: uvm_test_top.e.aa.inp_mon [INP_MON] AWADDR=        16 ,AWPROT=001 ,AWVALID=1 ,WDATA=a6de649e ,WVALID=0 ,WSTRB=1100 ,BREADY=1 ,ARADDR=         0 ,ARPROT=000 ,ARVALID=0 ,RREADY=0
UVM_INFO output_monitor.sv(34) @ 775: uvm_test_top.e.pa.out_mon [OUT_MON] DUT Outputs -> AWREADY:1 | WREADY:1 | BRESP:11 | BVALID:0 | ARREADY:1 | RDATA:0 | RRESP:0 | RVALID:0  
UVM_INFO scoreboard.sv(40) @ 775: uvm_test_top.e.scb [SCB] INP_TX-> reset=1 AWADDR=        16 ,AWPROT=001 ,AWVALID=1 ,WDATA=a6de649e ,WVALID=0 ,WSTRB=1100 ,BREADY=1 ,ARADDR=         0 ,ARPROT=000 ,ARVALID=0 ,RREADY=0
UVM_INFO scoreboard.sv(42) @ 775: uvm_test_top.e.scb [OUT_MON] OUT_TX -> AWREADY:1 | WREADY:1 | BRESP:11 | BVALID:0 | ARREADY:1 | RDATA:0 | RRESP:0 | RVALID:0  
UVM_INFO scoreboard.sv(99) @ 775: uvm_test_top.e.scb [SCB] EXP -> waddr_done=1, wdata_done=0, addr=        16, w_data=9aaf6bfa,  mem[addr]=2329543580 | BRESP:0 | BVALID:0 |  RDATA:0 | RRESP:0 | RVALID:0  
UVM_INFO scoreboard.sv(124) @ 775: uvm_test_top.e.scb [SCB] ------------------------------------------------------------------
UVM_INFO input_monitor.sv(35) @ 785: uvm_test_top.e.aa.inp_mon [INP_MON] AWADDR=3170430548 ,AWPROT=101 ,AWVALID=0 ,WDATA=86ae3c0f ,WVALID=1 ,WSTRB=0111 ,BREADY=0 ,ARADDR=         0 ,ARPROT=000 ,ARVALID=0 ,RREADY=0
UVM_INFO output_monitor.sv(34) @ 785: uvm_test_top.e.pa.out_mon [OUT_MON] DUT Outputs -> AWREADY:0 | WREADY:1 | BRESP:11 | BVALID:0 | ARREADY:1 | RDATA:0 | RRESP:0 | RVALID:0  
UVM_INFO scoreboard.sv(40) @ 785: uvm_test_top.e.scb [SCB] INP_TX-> reset=1 AWADDR=3170430548 ,AWPROT=101 ,AWVALID=0 ,WDATA=86ae3c0f ,WVALID=1 ,WSTRB=0111 ,BREADY=0 ,ARADDR=         0 ,ARPROT=000 ,ARVALID=0 ,RREADY=0
UVM_INFO scoreboard.sv(42) @ 785: uvm_test_top.e.scb [OUT_MON] OUT_TX -> AWREADY:0 | WREADY:1 | BRESP:11 | BVALID:0 | ARREADY:1 | RDATA:0 | RRESP:0 | RVALID:0  
UVM_INFO scoreboard.sv(99) @ 785: uvm_test_top.e.scb [SCB] EXP -> waddr_done=1, wdata_done=1, addr=        16, w_data=86ae3c0f,  mem[addr]=2329543580 | BRESP:0 | BVALID:0 |  RDATA:0 | RRESP:0 | RVALID:0  
UVM_INFO scoreboard.sv(124) @ 785: uvm_test_top.e.scb [SCB] ------------------------------------------------------------------
UVM_INFO input_monitor.sv(35) @ 795: uvm_test_top.e.aa.inp_mon [INP_MON] AWADDR=3170430548 ,AWPROT=101 ,AWVALID=0 ,WDATA=86ae3c0f ,WVALID=0 ,WSTRB=0111 ,BREADY=1 ,ARADDR=         0 ,ARPROT=000 ,ARVALID=0 ,RREADY=0
UVM_INFO output_monitor.sv(34) @ 795: uvm_test_top.e.pa.out_mon [OUT_MON] DUT Outputs -> AWREADY:0 | WREADY:0 | BRESP:11 | BVALID:0 | ARREADY:1 | RDATA:0 | RRESP:0 | RVALID:0  
UVM_INFO scoreboard.sv(40) @ 795: uvm_test_top.e.scb [SCB] INP_TX-> reset=1 AWADDR=3170430548 ,AWPROT=101 ,AWVALID=0 ,WDATA=86ae3c0f ,WVALID=0 ,WSTRB=0111 ,BREADY=1 ,ARADDR=         0 ,ARPROT=000 ,ARVALID=0 ,RREADY=0
UVM_INFO scoreboard.sv(42) @ 795: uvm_test_top.e.scb [OUT_MON] OUT_TX -> AWREADY:0 | WREADY:0 | BRESP:11 | BVALID:0 | ARREADY:1 | RDATA:0 | RRESP:0 | RVALID:0  
UVM_INFO scoreboard.sv(99) @ 795: uvm_test_top.e.scb [SCB] EXP -> waddr_done=1, wdata_done=1, addr=        16, w_data=86ae3c0f,  mem[addr]=2326674447 | BRESP:0 | BVALID:0 |  RDATA:0 | RRESP:0 | RVALID:0  
UVM_INFO scoreboard.sv(124) @ 795: uvm_test_top.e.scb [SCB] ------------------------------------------------------------------
UVM_INFO input_monitor.sv(35) @ 805: uvm_test_top.e.aa.inp_mon [INP_MON] AWADDR=3170430548 ,AWPROT=101 ,AWVALID=0 ,WDATA=86ae3c0f ,WVALID=0 ,WSTRB=0111 ,BREADY=1 ,ARADDR=         0 ,ARPROT=000 ,ARVALID=0 ,RREADY=0
UVM_INFO output_monitor.sv(34) @ 805: uvm_test_top.e.pa.out_mon [OUT_MON] DUT Outputs -> AWREADY:0 | WREADY:0 | BRESP:11 | BVALID:1 | ARREADY:1 | RDATA:0 | RRESP:0 | RVALID:0  
UVM_INFO scoreboard.sv(40) @ 805: uvm_test_top.e.scb [SCB] INP_TX-> reset=1 AWADDR=3170430548 ,AWPROT=101 ,AWVALID=0 ,WDATA=86ae3c0f ,WVALID=0 ,WSTRB=0111 ,BREADY=1 ,ARADDR=         0 ,ARPROT=000 ,ARVALID=0 ,RREADY=0
UVM_INFO scoreboard.sv(42) @ 805: uvm_test_top.e.scb [OUT_MON] OUT_TX -> AWREADY:0 | WREADY:0 | BRESP:11 | BVALID:1 | ARREADY:1 | RDATA:0 | RRESP:0 | RVALID:0  
UVM_INFO scoreboard.sv(99) @ 805: uvm_test_top.e.scb [SCB] EXP -> waddr_done=0, wdata_done=0, addr=        16, w_data=86ae3c0f,  mem[addr]=2326674447 | BRESP:0 | BVALID:1 |  RDATA:0 | RRESP:0 | RVALID:0  
UVM_INFO scoreboard.sv(110) @ 805: uvm_test_top.e.scb [SCB] FAIL COUNT=         16
UVM_INFO scoreboard.sv(124) @ 805: uvm_test_top.e.scb [SCB] ------------------------------------------------------------------
UVM_INFO input_monitor.sv(35) @ 815: uvm_test_top.e.aa.inp_mon [INP_MON] AWADDR=        36 ,AWPROT=101 ,AWVALID=1 ,WDATA=fb63c8cb ,WVALID=0 ,WSTRB=0111 ,BREADY=1 ,ARADDR=         0 ,ARPROT=000 ,ARVALID=0 ,RREADY=0
UVM_INFO output_monitor.sv(34) @ 815: uvm_test_top.e.pa.out_mon [OUT_MON] DUT Outputs -> AWREADY:0 | WREADY:0 | BRESP:11 | BVALID:0 | ARREADY:1 | RDATA:0 | RRESP:0 | RVALID:0  
UVM_INFO scoreboard.sv(40) @ 815: uvm_test_top.e.scb [SCB] INP_TX-> reset=1 AWADDR=        36 ,AWPROT=101 ,AWVALID=1 ,WDATA=fb63c8cb ,WVALID=0 ,WSTRB=0111 ,BREADY=1 ,ARADDR=         0 ,ARPROT=000 ,ARVALID=0 ,RREADY=0
UVM_INFO scoreboard.sv(42) @ 815: uvm_test_top.e.scb [OUT_MON] OUT_TX -> AWREADY:0 | WREADY:0 | BRESP:11 | BVALID:0 | ARREADY:1 | RDATA:0 | RRESP:0 | RVALID:0  
UVM_INFO scoreboard.sv(99) @ 815: uvm_test_top.e.scb [SCB] EXP -> waddr_done=0, wdata_done=0, addr=        16, w_data=86ae3c0f,  mem[addr]=2326674447 | BRESP:0 | BVALID:0 |  RDATA:0 | RRESP:0 | RVALID:0  
UVM_INFO scoreboard.sv(124) @ 815: uvm_test_top.e.scb [SCB] ------------------------------------------------------------------
UVM_INFO input_monitor.sv(35) @ 825: uvm_test_top.e.aa.inp_mon [INP_MON] AWADDR=        36 ,AWPROT=101 ,AWVALID=1 ,WDATA=fb63c8cb ,WVALID=0 ,WSTRB=0111 ,BREADY=1 ,ARADDR=         0 ,ARPROT=000 ,ARVALID=0 ,RREADY=0
UVM_INFO output_monitor.sv(34) @ 825: uvm_test_top.e.pa.out_mon [OUT_MON] DUT Outputs -> AWREADY:1 | WREADY:1 | BRESP:11 | BVALID:0 | ARREADY:1 | RDATA:0 | RRESP:0 | RVALID:0  
UVM_INFO scoreboard.sv(40) @ 825: uvm_test_top.e.scb [SCB] INP_TX-> reset=1 AWADDR=        36 ,AWPROT=101 ,AWVALID=1 ,WDATA=fb63c8cb ,WVALID=0 ,WSTRB=0111 ,BREADY=1 ,ARADDR=         0 ,ARPROT=000 ,ARVALID=0 ,RREADY=0
UVM_INFO scoreboard.sv(42) @ 825: uvm_test_top.e.scb [OUT_MON] OUT_TX -> AWREADY:1 | WREADY:1 | BRESP:11 | BVALID:0 | ARREADY:1 | RDATA:0 | RRESP:0 | RVALID:0  
UVM_INFO scoreboard.sv(99) @ 825: uvm_test_top.e.scb [SCB] EXP -> waddr_done=1, wdata_done=0, addr=        36, w_data=86ae3c0f,  mem[addr]=   5115853 | BRESP:0 | BVALID:0 |  RDATA:0 | RRESP:0 | RVALID:0  
UVM_INFO scoreboard.sv(124) @ 825: uvm_test_top.e.scb [SCB] ------------------------------------------------------------------
UVM_INFO input_monitor.sv(35) @ 835: uvm_test_top.e.aa.inp_mon [INP_MON] AWADDR=2914685032 ,AWPROT=001 ,AWVALID=0 ,WDATA=623529c9 ,WVALID=1 ,WSTRB=1110 ,BREADY=0 ,ARADDR=         0 ,ARPROT=000 ,ARVALID=0 ,RREADY=0
UVM_INFO output_monitor.sv(34) @ 835: uvm_test_top.e.pa.out_mon [OUT_MON] DUT Outputs -> AWREADY:0 | WREADY:1 | BRESP:11 | BVALID:0 | ARREADY:1 | RDATA:0 | RRESP:0 | RVALID:0  
UVM_INFO scoreboard.sv(40) @ 835: uvm_test_top.e.scb [SCB] INP_TX-> reset=1 AWADDR=2914685032 ,AWPROT=001 ,AWVALID=0 ,WDATA=623529c9 ,WVALID=1 ,WSTRB=1110 ,BREADY=0 ,ARADDR=         0 ,ARPROT=000 ,ARVALID=0 ,RREADY=0
UVM_INFO scoreboard.sv(42) @ 835: uvm_test_top.e.scb [OUT_MON] OUT_TX -> AWREADY:0 | WREADY:1 | BRESP:11 | BVALID:0 | ARREADY:1 | RDATA:0 | RRESP:0 | RVALID:0  
UVM_INFO scoreboard.sv(99) @ 835: uvm_test_top.e.scb [SCB] EXP -> waddr_done=1, wdata_done=1, addr=        36, w_data=623529c9,  mem[addr]=   5115853 | BRESP:0 | BVALID:0 |  RDATA:0 | RRESP:0 | RVALID:0  
UVM_INFO scoreboard.sv(124) @ 835: uvm_test_top.e.scb [SCB] ------------------------------------------------------------------
UVM_INFO input_monitor.sv(35) @ 845: uvm_test_top.e.aa.inp_mon [INP_MON] AWADDR=2914685032 ,AWPROT=001 ,AWVALID=0 ,WDATA=623529c9 ,WVALID=0 ,WSTRB=1110 ,BREADY=1 ,ARADDR=         0 ,ARPROT=000 ,ARVALID=0 ,RREADY=0
UVM_INFO output_monitor.sv(34) @ 845: uvm_test_top.e.pa.out_mon [OUT_MON] DUT Outputs -> AWREADY:0 | WREADY:0 | BRESP:11 | BVALID:0 | ARREADY:1 | RDATA:0 | RRESP:0 | RVALID:0  
UVM_INFO scoreboard.sv(40) @ 845: uvm_test_top.e.scb [SCB] INP_TX-> reset=1 AWADDR=2914685032 ,AWPROT=001 ,AWVALID=0 ,WDATA=623529c9 ,WVALID=0 ,WSTRB=1110 ,BREADY=1 ,ARADDR=         0 ,ARPROT=000 ,ARVALID=0 ,RREADY=0
UVM_INFO scoreboard.sv(42) @ 845: uvm_test_top.e.scb [OUT_MON] OUT_TX -> AWREADY:0 | WREADY:0 | BRESP:11 | BVALID:0 | ARREADY:1 | RDATA:0 | RRESP:0 | RVALID:0  
UVM_INFO scoreboard.sv(99) @ 845: uvm_test_top.e.scb [SCB] EXP -> waddr_done=1, wdata_done=1, addr=        36, w_data=623529c9,  mem[addr]=1647651277 | BRESP:0 | BVALID:0 |  RDATA:0 | RRESP:0 | RVALID:0  
UVM_INFO scoreboard.sv(124) @ 845: uvm_test_top.e.scb [SCB] ------------------------------------------------------------------
UVM_INFO input_monitor.sv(35) @ 855: uvm_test_top.e.aa.inp_mon [INP_MON] AWADDR=2914685032 ,AWPROT=001 ,AWVALID=0 ,WDATA=623529c9 ,WVALID=0 ,WSTRB=1110 ,BREADY=1 ,ARADDR=         0 ,ARPROT=000 ,ARVALID=0 ,RREADY=0
UVM_INFO output_monitor.sv(34) @ 855: uvm_test_top.e.pa.out_mon [OUT_MON] DUT Outputs -> AWREADY:0 | WREADY:0 | BRESP:11 | BVALID:1 | ARREADY:1 | RDATA:0 | RRESP:0 | RVALID:0  
UVM_INFO scoreboard.sv(40) @ 855: uvm_test_top.e.scb [SCB] INP_TX-> reset=1 AWADDR=2914685032 ,AWPROT=001 ,AWVALID=0 ,WDATA=623529c9 ,WVALID=0 ,WSTRB=1110 ,BREADY=1 ,ARADDR=         0 ,ARPROT=000 ,ARVALID=0 ,RREADY=0
